; CSV generated by libsigrok 0.6.0-git-0f523f2b
; from Saleae Logic16 on Thu Jul 12 17:55:15 2018
; Channels (16/16): 0, 1, 2, 3, 4, 5, 6, 7, 8, 9, 10, 11, 12, 13, 14, 15
; Samplerate: 1 MHz
microseconds,logic,logic,logic,logic,logic,logic,logic,logic,logic,logic,logic,logic,logic,logic,logic,logic
1,0,0,0,0,0,1,0,1,0,1,0,1,1,0,0,0
2,1,1,1,1,0,1,1,0,0,1,0,1,1,0,0,0
6,0,1,0,1,1,0,1,0,0,1,0,1,1,0,0,0
10,0,0,0,0,1,0,1,0,0,1,0,1,1,0,0,0
14,1,1,0,1,0,0,1,0,0,1,0,1,1,0,0,0
18,1,1,1,1,0,0,0,1,1,1,1,1,1,0,0,0
22,0,0,1,1,0,0,1,0,1,0,0,0,0,1,0,0
26,1,1,1,1,1,0,1,0,1,0,0,0,0,1,0,0
30,0,1,0,1,0,1,1,0,1,0,0,0,0,1,0,0
34,1,1,1,0,1,1,1,0,1,0,0,0,0,1,0,0
38,0,1,0,0,0,0,0,1,1,0,0,0,0,1,0,0
42,1,1,1,1,0,0,0,1,1,0,0,0,0,1,0,0
46,1,0,0,1,1,0,0,1,0,0,0,0,0,1,0,0
50,0,1,1,1,0,0,1,1,0,0,1,1,1,0,0,0
54,0,0,0,0,1,1,0,0,1,1,0,1,1,0,0,0
58,0,0,1,0,0,1,0,1,0,1,0,1,1,0,0,0
62,0,0,0,0,1,1,1,0,0,1,0,1,1,0,0,0
66,0,0,0,1,1,0,1,0,0,1,0,1,1,0,0,0
70,0,0,0,0,1,0,1,0,0,1,0,1,1,0,0,0
74,1,0,0,1,0,0,1,0,0,1,0,1,1,0,0,0
78,1,1,0,1,0,0,0,1,1,1,1,1,1,0,0,0
82,1,0,0,1,0,0,1,0,1,0,0,0,0,1,0,0
86,0,0,1,1,1,0,1,0,1,0,0,0,0,1,0,0
90,0,1,0,1,0,1,1,0,1,0,0,0,0,1,0,0
94,0,0,0,1,1,1,1,0,1,0,0,0,0,1,0,0
98,0,1,0,0,0,0,0,1,1,0,0,0,0,1,0,0
102,0,1,1,1,0,0,0,1,1,0,0,0,0,1,0,0
106,0,0,1,1,1,0,0,1,0,0,0,0,0,1,0,0
110,0,0,1,1,0,0,1,1,0,0,1,1,1,0,0,0
114,0,0,0,0,1,1,0,0,1,1,0,1,1,0,0,0
118,0,1,0,0,0,1,0,1,0,1,0,1,1,0,0,0
122,1,0,1,1,0,1,1,0,0,1,0,1,1,0,0,0
126,1,0,1,1,1,0,1,0,0,1,0,1,1,0,0,0
130,0,0,0,0,1,0,1,0,0,1,0,1,1,0,0,0
134,0,0,0,1,0,0,1,0,0,1,0,1,1,0,0,0
138,1,1,0,1,0,0,0,1,1,1,1,1,1,0,0,0
142,0,1,0,1,0,0,1,0,1,0,0,0,0,1,0,0
146,1,1,0,1,1,0,1,0,1,0,0,0,0,1,0,0
150,0,0,0,1,0,1,1,0,1,0,0,0,0,1,0,0
154,0,1,1,0,1,1,1,0,1,0,0,0,0,1,0,0
158,1,1,0,0,0,0,0,1,1,0,0,0,0,1,0,0
162,1,1,1,1,0,0,0,1,1,0,0,0,0,1,0,0
166,1,1,0,1,1,0,0,1,0,0,0,0,0,1,0,0
170,1,1,1,1,0,0,1,1,0,0,1,1,1,0,0,0
174,0,0,0,0,1,1,0,0,1,1,0,1,1,0,0,0
178,1,1,0,0,0,1,0,1,0,1,0,1,1,0,0,0
182,1,0,1,1,0,1,1,0,0,1,0,1,1,0,0,0
186,0,1,0,1,1,0,1,0,0,1,0,1,1,0,0,0
190,1,1,1,1,0,0,1,0,0,1,0,1,1,0,0,0
194,1,1,1,0,0,0,1,0,0,1,0,1,1,0,0,0
198,1,0,0,1,0,0,0,1,1,1,1,1,1,0,0,0
202,0,1,0,1,0,0,1,0,1,0,0,0,0,1,0,0
206,0,0,1,1,1,0,1,0,1,0,0,0,0,1,0,0
210,1,1,0,1,0,1,1,0,1,0,0,0,0,1,0,0
214,1,1,1,0,1,1,1,0,1,0,0,0,0,1,0,0
218,0,1,0,0,0,0,0,1,1,0,0,0,0,1,0,0
222,1,1,1,1,0,0,0,1,1,0,0,0,0,1,0,0
226,1,0,1,1,1,0,0,1,0,0,0,0,0,1,0,0
230,0,0,0,0,1,0,1,1,0,0,1,1,1,0,0,0
234,0,1,1,1,0,1,0,0,1,1,0,1,1,0,0,0
238,1,1,0,0,0,1,0,1,0,1,0,1,1,0,0,0
242,0,0,1,1,0,1,1,0,0,1,0,1,1,0,0,0
246,0,1,0,1,1,0,1,0,0,1,0,1,1,0,0,0
250,1,1,1,1,0,0,1,0,0,1,0,1,1,0,0,0
254,0,0,0,1,0,0,1,0,0,1,0,1,1,0,0,0
258,1,1,0,1,0,0,0,1,1,1,1,1,1,0,0,0
262,0,0,0,1,0,0,1,0,1,0,0,0,0,1,0,0
266,0,0,1,1,1,0,1,0,1,0,0,0,0,1,0,0
270,1,0,0,1,0,1,1,0,1,0,0,0,0,1,0,0
274,1,1,1,0,1,1,1,0,1,0,0,0,0,1,0,0
278,0,1,0,0,0,0,0,1,1,0,0,0,0,1,0,0
282,1,0,1,1,0,0,0,1,1,0,0,0,0,1,0,0
286,0,1,1,1,1,0,0,1,0,0,0,0,0,1,0,0
290,0,0,1,1,0,0,1,1,0,0,1,1,1,0,0,0
294,0,1,0,0,1,1,0,0,1,1,0,1,1,0,0,0
298,1,1,0,0,0,1,0,1,0,1,0,1,1,0,0,0
302,1,0,1,1,0,1,1,0,0,1,0,1,1,0,0,0
306,0,1,0,1,1,0,1,0,0,1,0,1,1,0,0,0
310,0,0,0,0,1,0,1,0,0,1,0,1,1,0,0,0
314,0,1,0,1,0,0,1,0,0,1,0,1,1,0,0,0
318,1,0,0,1,0,0,0,1,1,1,1,1,1,0,0,0
322,1,0,0,1,0,0,1,0,1,0,0,0,0,1,0,0
326,0,0,1,1,1,0,1,0,1,0,0,0,0,1,0,0
330,1,0,1,0,0,1,1,0,1,0,0,0,0,1,0,0
334,1,0,1,0,1,1,1,0,1,0,0,0,0,1,0,0
338,0,1,0,0,0,0,0,1,1,0,0,0,0,1,0,0
342,1,0,1,1,0,0,0,1,1,0,0,0,0,1,0,0
346,0,1,0,1,1,0,0,1,0,0,0,0,0,1,0,0
350,1,0,1,1,0,0,1,1,0,0,1,1,1,0,0,0
354,0,0,0,0,1,1,0,0,1,1,0,1,1,0,0,0
358,1,1,0,0,0,1,0,1,0,1,0,1,1,0,0,0
362,0,1,1,1,0,1,1,0,0,1,0,1,1,0,0,0
366,1,1,1,0,1,0,1,0,0,1,0,1,1,0,0,0
370,1,1,1,1,0,0,1,0,0,1,0,1,1,0,0,0
374,1,0,0,1,0,0,1,0,0,1,0,1,1,0,0,0
378,1,1,0,1,0,0,0,1,1,1,1,1,1,0,0,0
382,0,0,0,1,0,0,1,0,1,0,0,0,0,1,0,0
386,1,0,1,1,1,0,1,0,1,0,0,0,0,1,0,0
390,1,0,0,1,0,1,1,0,1,0,0,0,0,1,0,0
394,1,1,1,0,1,1,1,0,1,0,0,0,0,1,0,0
398,1,0,0,0,0,0,0,1,1,0,0,0,0,1,0,0
402,1,0,1,1,0,0,0,1,1,0,0,0,0,1,0,0
406,0,1,1,1,1,0,0,1,0,0,0,0,0,1,0,0
410,0,1,1,1,0,0,1,1,0,0,1,1,1,0,0,0
414,1,1,1,1,0,1,0,0,1,1,0,1,1,0,0,0
418,1,0,0,0,0,1,0,1,0,1,0,1,1,0,0,0
422,1,0,1,1,0,1,1,0,0,1,0,1,1,0,0,0
426,0,1,0,1,1,0,1,0,0,1,0,1,1,0,0,0
430,1,0,0,0,1,0,1,0,0,1,0,1,1,0,0,0
434,0,0,0,1,0,0,1,0,0,1,0,1,1,0,0,0
438,1,0,1,1,0,0,0,1,1,1,1,1,1,0,0,0
442,0,1,0,1,0,0,1,0,1,0,0,0,0,1,0,0
446,0,0,1,1,1,0,1,0,1,0,0,0,0,1,0,0
450,0,0,0,1,0,1,1,0,1,0,0,0,0,1,0,0
454,0,1,1,0,1,1,1,0,1,0,0,0,0,1,0,0
458,1,0,0,0,0,0,0,1,1,0,0,0,0,1,0,0
462,0,1,1,1,0,0,0,1,1,0,0,0,0,1,0,0
466,0,1,0,0,0,1,0,1,0,0,0,0,0,1,0,0
470,0,1,1,1,0,0,1,1,0,0,1,1,1,0,0,0
474,0,1,0,0,1,1,0,0,1,1,0,1,1,0,0,0
478,1,0,0,0,0,1,0,1,0,1,0,1,1,0,0,0
482,0,1,1,1,0,1,1,0,0,1,0,1,1,0,0,0
486,0,0,0,1,1,0,1,0,0,1,0,1,1,0,0,0
490,0,0,0,0,1,0,1,0,0,1,0,1,1,0,0,0
494,1,0,0,1,0,0,1,0,0,1,0,1,1,0,0,0
498,1,0,0,1,0,0,0,1,1,1,1,1,1,0,0,0
502,0,0,0,1,0,0,1,0,1,0,0,0,0,1,0,0
506,0,0,1,1,1,0,1,0,1,0,0,0,0,1,0,0
510,0,0,0,1,0,1,1,0,1,0,0,0,0,1,0,0
514,0,1,1,0,1,1,1,0,1,0,0,0,0,1,0,0
518,0,0,0,0,0,0,0,1,1,0,0,0,0,1,0,0
522,0,0,0,0,1,0,0,1,1,0,0,0,0,1,0,0
526,0,0,0,0,0,1,0,1,0,0,0,0,0,1,0,0
530,1,1,1,1,0,0,1,1,0,0,1,1,1,0,0,0
534,1,1,0,1,0,1,0,0,1,1,0,1,1,0,0,0
538,0,1,0,0,0,1,0,1,0,1,0,1,1,0,0,0
542,0,1,1,1,0,1,1,0,0,1,0,1,1,0,0,0
546,1,0,0,1,1,0,1,0,0,1,0,1,1,0,0,0
550,1,1,1,1,0,0,1,0,0,1,0,1,1,0,0,0
554,0,1,0,1,0,0,1,0,0,1,0,1,1,0,0,0
558,1,1,0,0,0,0,0,1,1,1,1,1,1,0,0,0
562,1,0,0,1,0,0,1,0,1,0,0,0,0,1,0,0
566,1,1,0,1,1,0,1,0,1,0,0,0,0,1,0,0
570,1,0,0,1,0,1,1,0,1,0,0,0,0,1,0,0
574,0,0,1,0,1,1,1,0,1,0,0,0,0,1,0,0
578,1,0,0,0,0,0,0,1,1,0,0,0,0,1,0,0
582,0,1,1,1,0,0,0,1,1,0,0,0,0,1,0,0
586,1,1,1,1,0,1,0,1,0,0,0,0,0,1,0,0
590,1,1,0,0,1,0,1,1,0,0,1,1,1,0,0,0
594,0,0,1,0,1,1,0,0,1,1,0,1,1,0,0,0
598,0,0,1,0,0,1,0,1,0,1,0,1,1,0,0,0
602,0,1,1,1,0,1,1,0,0,1,0,1,1,0,0,0
606,0,1,0,1,1,0,1,0,0,1,0,1,1,0,0,0
610,0,1,0,0,1,0,1,0,0,1,0,1,1,0,0,0
614,1,0,0,1,0,0,1,0,0,1,0,1,1,0,0,0
618,0,0,0,1,1,1,1,0,1,1,1,1,1,0,0,0
622,1,0,0,1,0,0,1,0,1,0,0,0,0,1,0,0
626,1,1,0,1,1,0,1,0,1,0,0,0,0,1,0,0
630,0,0,0,1,0,1,1,0,1,0,0,0,0,1,0,0
634,0,0,1,0,1,1,1,0,1,0,0,0,0,1,0,0
638,0,0,0,0,0,0,0,1,1,0,0,0,0,1,0,0
642,0,0,1,1,0,0,0,1,1,0,0,0,0,1,0,0
646,1,1,0,1,0,1,0,1,0,0,0,0,0,1,0,0
650,0,1,0,0,1,0,1,1,0,0,1,1,1,0,0,0
654,1,0,1,0,1,1,0,0,1,1,0,1,1,0,0,0
658,1,1,0,0,0,1,0,1,0,1,0,1,1,0,0,0
662,0,1,1,1,0,1,1,0,0,1,0,1,1,0,0,0
666,0,1,0,1,1,0,1,0,0,1,0,1,1,0,0,0
670,0,0,0,0,1,0,1,0,0,1,0,1,1,0,0,0
674,1,1,1,0,0,0,1,0,0,1,0,1,1,0,0,0
678,0,0,1,1,1,1,1,0,1,1,1,1,1,0,0,0
682,1,0,0,1,0,0,1,0,1,0,0,0,0,1,0,0
686,1,1,0,1,1,0,1,0,1,0,0,0,0,1,0,0
690,0,1,1,0,0,1,1,0,1,0,0,0,0,1,0,0
694,1,0,1,0,1,1,1,0,1,0,0,0,0,1,0,0
698,1,0,0,0,0,0,0,1,1,0,0,0,0,1,0,0
702,1,0,1,1,0,0,0,1,1,0,0,0,0,1,0,0
706,0,0,1,1,0,1,0,1,0,0,0,0,0,1,0,0
710,1,1,0,0,1,0,1,1,0,0,1,1,1,0,0,0
714,0,0,1,0,1,1,0,0,1,1,0,1,1,0,0,0
718,0,1,0,0,0,1,0,1,0,1,0,1,1,0,0,0
722,1,0,1,1,0,1,1,0,0,1,0,1,1,0,0,0
726,0,0,1,1,1,0,1,0,0,1,0,1,1,0,0,0
730,1,0,0,0,1,0,1,0,0,1,0,1,1,0,0,0
734,0,0,0,1,0,0,1,0,0,1,0,1,1,0,0,0
738,0,1,1,0,1,1,1,0,1,1,1,1,1,0,0,0
742,1,0,0,1,0,0,1,0,1,0,0,0,0,1,0,0
746,0,1,0,1,1,0,1,0,1,0,0,0,0,1,0,0
750,0,0,0,1,0,1,1,0,1,0,0,0,0,1,0,0
754,1,0,1,0,1,1,1,0,1,0,0,0,0,1,0,0
758,0,1,0,0,0,0,0,1,1,0,0,0,0,1,0,0
762,0,1,1,1,0,0,0,1,1,0,0,0,0,1,0,0
766,1,0,1,1,0,1,0,1,0,0,0,0,0,1,0,0
770,0,1,0,0,1,0,1,1,0,0,1,1,1,0,0,0
774,0,0,0,0,1,1,0,0,1,1,0,1,1,0,0,0
778,0,1,0,0,0,1,0,1,0,1,0,1,1,0,0,0
782,0,1,1,1,0,1,1,0,0,1,0,1,1,0,0,0
786,0,1,0,1,1,0,1,0,0,1,0,1,1,0,0,0
790,0,1,0,0,1,0,1,0,0,1,0,1,1,0,0,0
794,0,1,0,1,0,0,1,0,0,1,0,1,1,0,0,0
798,1,0,1,0,1,1,1,0,1,1,1,1,1,0,0,0
802,0,0,0,1,0,0,1,0,1,0,0,0,0,1,0,0
806,1,0,0,1,1,0,1,0,1,0,0,0,0,1,0,0
810,0,0,0,1,0,1,1,0,1,0,0,0,0,1,0,0
814,0,0,1,0,1,1,1,0,1,0,0,0,0,1,0,0
818,1,0,0,0,0,0,0,1,1,0,0,0,0,1,0,0
822,0,0,1,1,0,0,0,1,1,0,0,0,0,1,0,0
826,0,1,0,0,1,1,0,1,0,0,0,0,0,1,0,0
830,1,0,1,0,1,0,1,1,0,0,1,1,1,0,0,0
834,0,0,1,0,1,1,0,0,1,1,0,1,1,0,0,0
838,0,0,1,0,0,1,0,1,0,1,0,1,1,0,0,0
842,0,1,1,1,0,1,1,0,0,1,0,1,1,0,0,0
846,1,0,0,1,1,0,1,0,0,1,0,1,1,0,0,0
850,0,0,0,0,1,0,1,0,0,1,0,1,1,0,0,0
854,0,0,0,1,0,0,1,0,0,1,0,1,1,0,0,0
858,0,0,0,1,1,1,1,0,1,1,1,1,1,0,0,0
862,0,0,0,1,0,0,1,0,1,0,0,0,0,1,0,0
866,1,0,0,1,1,0,1,0,1,0,0,0,0,1,0,0
870,1,1,1,0,0,1,1,0,1,0,0,0,0,1,0,0
874,0,0,1,0,1,1,1,0,1,0,0,0,0,1,0,0
878,1,0,0,0,0,0,0,1,1,0,0,0,0,1,0,0
882,1,0,1,1,0,0,0,1,1,0,0,0,0,1,0,0
886,1,0,1,1,0,1,0,1,0,0,0,0,0,1,0,0
890,0,0,1,0,1,0,1,1,0,0,1,1,1,0,0,0
894,1,1,0,0,1,1,0,0,1,1,0,1,1,0,0,0
898,1,1,0,0,0,1,0,1,0,1,0,1,1,0,0,0
902,0,1,1,1,0,1,1,0,0,1,0,1,1,0,0,0
906,0,1,0,1,1,0,1,0,0,1,0,1,1,0,0,0
910,0,0,0,0,1,0,1,0,0,1,0,1,1,0,0,0
914,1,0,0,1,0,0,1,0,0,1,0,1,1,0,0,0
918,1,0,0,1,1,1,1,0,1,1,1,1,1,0,0,0
922,0,0,0,1,0,0,1,0,1,0,0,0,0,1,0,0
926,0,1,0,1,1,0,1,0,1,0,0,0,0,1,0,0
930,0,0,0,1,0,1,1,0,1,0,0,0,0,1,0,0
934,0,0,1,0,1,1,1,0,1,0,0,0,0,1,0,0
938,0,1,0,0,0,0,0,1,1,0,0,0,0,1,0,0
942,0,1,1,1,0,0,0,1,1,0,0,0,0,1,0,0
946,1,1,1,1,0,1,0,1,0,0,0,0,0,1,0,0
950,0,0,1,0,1,0,1,1,0,0,1,1,1,0,0,0
954,1,1,0,0,1,1,0,0,1,1,0,1,1,0,0,0
958,1,1,0,0,0,1,0,1,0,1,0,1,1,0,0,0
962,1,1,1,1,0,1,1,0,0,1,0,1,1,0,0,0
966,1,0,0,1,1,0,1,0,0,1,0,1,1,0,0,0
970,0,1,1,1,0,0,1,0,0,1,0,1,1,0,0,0
974,1,0,0,1,0,0,1,0,0,1,0,1,1,0,0,0
978,0,1,1,0,1,1,1,0,1,1,1,1,1,0,0,0
982,1,0,0,1,0,0,1,0,1,0,0,0,0,1,0,0
986,1,1,0,1,1,0,1,0,1,0,0,0,0,1,0,0
990,1,1,1,0,0,1,1,0,1,0,0,0,0,1,0,0
994,0,0,1,0,1,1,1,0,1,0,0,0,0,1,0,0
998,1,0,0,0,0,0,0,1,1,0,0,0,0,1,0,0
1002,0,1,1,1,0,0,0,1,1,0,0,0,0,1,0,0
1006,1,1,1,1,0,1,0,1,0,0,0,0,0,1,0,0
1010,0,1,1,0,1,0,1,1,0,0,1,1,1,0,0,0
1014,0,0,1,0,1,1,0,0,1,1,0,1,1,0,0,0
1018,0,0,1,0,0,1,0,1,0,1,0,1,1,0,0,0
1022,0,0,0,0,1,1,1,0,0,1,0,1,1,0,0,0
1026,1,1,0,1,1,0,1,0,0,1,0,1,1,0,0,0
1030,0,0,0,0,1,0,1,0,0,1,0,1,1,0,0,0
1034,0,0,0,1,0,0,1,0,0,1,0,1,1,0,0,0
1038,0,1,1,0,1,1,1,0,1,1,1,1,1,0,0,0
1042,1,0,0,1,0,0,1,0,1,0,0,0,0,1,0,0
1046,1,0,0,1,1,0,1,0,1,0,0,0,0,1,0,0
1050,1,1,1,0,0,1,1,0,1,0,0,0,0,1,0,0
1054,0,0,1,0,1,1,1,0,1,0,0,0,0,1,0,0
1058,1,0,0,0,0,0,0,1,1,0,0,0,0,1,0,0
1062,1,0,1,1,0,0,0,1,1,0,0,0,0,1,0,0
1066,0,0,0,0,1,1,0,1,0,0,0,0,0,1,0,0
1070,1,0,1,0,1,0,1,1,0,0,1,1,1,0,0,0
1074,1,1,0,0,1,1,0,0,1,1,0,1,1,0,0,0
1078,0,0,1,0,0,1,0,1,0,1,0,1,1,0,0,0
1082,0,1,1,1,0,1,1,0,0,1,0,1,1,0,0,0
1086,1,0,0,1,1,0,1,0,0,1,0,1,1,0,0,0
1090,1,1,1,1,0,0,1,0,0,1,0,1,1,0,0,0
1094,1,0,0,1,0,0,1,0,0,1,0,1,1,0,0,0
1098,0,1,1,0,1,1,1,0,1,1,1,1,1,0,0,0
1102,0,0,0,1,0,0,1,0,1,0,0,0,0,1,0,0
1106,0,1,0,1,1,0,1,0,1,0,0,0,0,1,0,0
1110,0,1,1,0,0,1,1,0,1,0,0,0,0,1,0,0
1114,0,0,1,0,1,1,1,0,1,0,0,0,0,1,0,0
1118,1,0,0,0,0,0,0,1,1,0,0,0,0,1,0,0
1122,1,0,1,1,0,0,0,1,1,0,0,0,0,1,0,0
1126,1,1,1,1,0,1,0,1,0,0,0,0,0,1,0,0
1130,0,0,1,0,1,0,1,1,0,0,1,1,1,0,0,0
1134,1,1,0,0,1,1,0,0,1,1,0,1,1,0,0,0
1138,0,1,0,0,0,1,0,1,0,1,0,1,1,0,0,0
1142,1,1,1,1,0,1,1,0,0,1,0,1,1,0,0,0
1146,1,1,0,1,1,0,1,0,0,1,0,1,1,0,0,0
1150,1,1,1,1,0,0,1,0,0,1,0,1,1,0,0,0
1154,1,0,0,1,0,0,1,0,0,1,0,1,1,0,0,0
1158,1,0,1,0,1,1,1,0,1,1,1,1,1,0,0,0
1162,0,0,0,1,0,0,1,0,1,0,0,0,0,1,0,0
1166,0,1,0,1,1,0,1,0,1,0,0,0,0,1,0,0
1170,1,1,1,0,0,1,1,0,1,0,0,0,0,1,0,0
1174,1,0,1,0,1,1,1,0,1,0,0,0,0,1,0,0
1178,1,0,0,0,0,0,0,1,1,0,0,0,0,1,0,0
1182,0,0,1,1,0,0,0,1,1,0,0,0,0,1,0,0
1186,1,0,0,0,1,1,0,1,0,0,0,0,0,1,0,0
1190,0,1,1,0,1,0,1,1,0,0,1,1,1,0,0,0
1194,1,1,0,0,1,1,0,0,1,1,0,1,1,0,0,0
1198,0,1,0,0,0,1,0,1,0,1,0,1,1,0,0,0
1202,0,0,0,0,1,1,1,0,0,1,0,1,1,0,0,0
1206,1,1,0,1,1,0,1,0,0,1,0,1,1,0,0,0
1210,1,0,0,0,1,0,1,0,0,1,0,1,1,0,0,0
1214,1,0,0,1,0,0,1,0,0,1,0,1,1,0,0,0
1218,1,0,1,0,1,1,1,0,1,1,1,1,1,0,0,0
1222,0,0,0,1,0,0,1,0,1,0,0,0,0,1,0,0
1226,0,1,0,1,1,0,1,0,1,0,0,0,0,1,0,0
1230,1,1,1,0,0,1,1,0,1,0,0,0,0,1,0,0
1234,0,0,1,0,1,1,1,0,1,0,0,0,0,1,0,0
1238,1,0,0,0,0,0,0,1,1,0,0,0,0,1,0,0
1242,1,0,1,1,0,0,0,1,1,0,0,0,0,1,0,0
1246,1,0,0,0,1,1,0,1,0,0,0,0,0,1,0,0
1250,1,0,1,0,1,0,1,1,0,0,1,1,1,0,0,0
1254,0,1,0,0,1,1,0,0,1,1,0,1,1,0,0,0
1258,0,1,0,0,0,1,0,1,0,1,0,1,1,0,0,0
1262,0,1,1,1,0,1,1,0,0,1,0,1,1,0,0,0
1266,0,1,0,1,1,0,1,0,0,1,0,1,1,0,0,0
1270,1,1,1,1,0,0,1,0,0,1,0,1,1,0,0,0
1274,0,0,0,1,0,0,1,0,0,1,0,1,1,0,0,0
1278,0,1,0,0,1,1,1,0,1,1,1,1,1,0,0,0
1282,1,1,1,0,0,0,1,0,1,0,0,0,0,1,0,0
1286,0,1,0,1,1,0,1,0,1,0,0,0,0,1,0,0
1290,1,1,1,0,0,1,1,0,1,0,0,0,0,1,0,0
1294,1,0,1,0,1,1,1,0,1,0,0,0,0,1,0,0
1298,0,0,0,0,0,0,0,1,1,0,0,0,0,1,0,0
1302,1,0,1,1,0,0,0,1,1,0,0,0,0,1,0,0
1306,0,1,0,0,1,1,0,1,0,0,0,0,0,1,0,0
1310,0,1,1,0,1,0,1,1,0,0,1,1,1,0,0,0
1314,0,0,1,0,1,1,0,0,1,1,0,1,1,0,0,0
1318,1,1,0,0,0,1,0,1,0,1,0,1,1,0,0,0
1322,1,1,1,1,0,1,1,0,0,1,0,1,1,0,0,0
1326,0,1,0,1,1,0,1,0,0,1,0,1,1,0,0,0
1330,1,0,0,0,1,0,1,0,0,1,0,1,1,0,0,0
1334,0,0,0,1,0,0,1,0,0,1,0,1,1,0,0,0
1338,0,0,1,0,1,1,1,0,1,1,1,1,1,0,0,0
1342,1,0,0,1,0,0,1,0,1,0,0,0,0,1,0,0
1346,0,1,0,1,1,0,1,0,1,0,0,0,0,1,0,0
1350,1,1,1,0,0,1,1,0,1,0,0,0,0,1,0,0
1354,0,0,1,0,1,1,1,0,1,0,0,0,0,1,0,0
1358,0,0,0,0,0,0,0,1,1,0,0,0,0,1,0,0
1362,1,0,1,1,0,0,0,1,1,0,0,0,0,1,0,0
1366,0,1,0,0,1,1,0,1,0,0,0,0,0,1,0,0
1370,1,0,1,0,1,0,1,1,0,0,1,1,1,0,0,0
1374,1,1,0,0,1,1,0,0,1,1,0,1,1,0,0,0
1378,1,1,0,0,0,1,0,1,0,1,0,1,1,0,0,0
1382,1,1,1,1,0,1,1,0,0,1,0,1,1,0,0,0
1386,1,1,0,1,1,0,1,0,0,1,0,1,1,0,0,0
1390,1,1,1,1,0,0,1,0,0,1,0,1,1,0,0,0
1394,1,0,0,1,0,0,1,0,0,1,0,1,1,0,0,0
1398,0,1,0,0,1,1,1,0,1,1,1,1,1,0,0,0
1402,0,0,0,1,0,0,1,0,1,0,0,0,0,1,0,0
1406,0,1,0,1,1,0,1,0,1,0,0,0,0,1,0,0
1410,0,0,0,1,0,1,1,0,1,0,0,0,0,1,0,0
1414,0,0,1,0,1,1,1,0,1,0,0,0,0,1,0,0
1418,0,0,0,0,0,0,0,1,1,0,0,0,0,1,0,0
1422,0,0,1,1,0,0,0,1,1,0,0,0,0,1,0,0
1426,1,1,0,0,1,1,0,1,0,0,0,0,0,1,0,0
1430,0,1,1,0,1,0,1,1,0,0,1,1,1,0,0,0
1434,1,1,0,0,1,1,0,0,1,1,0,1,1,0,0,0
1438,0,1,0,0,0,1,0,1,0,1,0,1,1,0,0,0
1442,1,0,1,1,0,1,1,0,0,1,0,1,1,0,0,0
1446,0,1,0,1,1,0,1,0,0,1,0,1,1,0,0,0
1450,1,1,1,1,0,0,1,0,0,1,0,1,1,0,0,0
1454,1,0,0,1,0,0,1,0,0,1,0,1,1,0,0,0
1458,0,1,0,0,1,1,1,0,1,1,1,1,1,0,0,0
1462,0,0,0,1,0,0,1,0,1,0,0,0,0,1,0,0
1466,1,0,0,1,1,0,1,0,1,0,0,0,0,1,0,0
1470,0,0,0,1,0,1,1,0,1,0,0,0,0,1,0,0
1474,1,0,1,0,1,1,1,0,1,0,0,0,0,1,0,0
1478,0,0,0,0,0,0,0,1,1,0,0,0,0,1,0,0
1482,1,0,1,1,0,0,0,1,1,0,0,0,0,1,0,0
1486,0,0,1,0,1,1,0,1,0,0,0,0,0,1,0,0
1490,1,1,1,0,1,0,1,1,0,0,1,1,1,0,0,0
1494,1,1,0,0,1,1,0,0,1,1,0,1,1,0,0,0
1498,0,0,1,0,0,1,0,1,0,1,0,1,1,0,0,0
1502,0,0,0,0,1,1,1,0,0,1,0,1,1,0,0,0
1506,0,1,0,1,1,0,1,0,0,1,0,1,1,0,0,0
1510,0,0,0,0,1,0,1,0,0,1,0,1,1,0,0,0
1514,1,0,0,1,0,0,1,0,0,1,0,1,1,0,0,0
1518,0,1,0,0,1,1,1,0,1,1,1,1,1,0,0,0
1522,0,0,0,1,0,0,1,0,1,0,0,0,0,1,0,0
1526,0,1,0,1,1,0,1,0,1,0,0,0,0,1,0,0
1530,1,1,1,0,0,1,1,0,1,0,0,0,0,1,0,0
1534,0,0,1,0,1,1,1,0,1,0,0,0,0,1,0,0
1538,1,0,0,0,0,0,0,1,1,0,0,0,0,1,0,0
1542,1,1,0,1,0,0,0,1,1,0,0,0,0,1,0,0
1546,1,1,0,0,1,1,0,1,0,0,0,0,0,1,0,0
1550,1,0,1,0,1,0,1,1,0,0,1,1,1,0,0,0
1554,1,1,0,0,1,1,0,0,1,1,0,1,1,0,0,0
1558,0,0,1,0,0,1,0,1,0,1,0,1,1,0,0,0
1562,0,1,1,1,0,1,1,0,0,1,0,1,1,0,0,0
1566,0,1,0,1,1,0,1,0,0,1,0,1,1,0,0,0
1570,1,1,1,1,0,0,1,0,0,1,0,1,1,0,0,0
1574,0,0,0,1,0,0,1,0,0,1,0,1,1,0,0,0
1578,0,0,1,0,0,1,1,0,1,1,1,1,1,0,0,0
1582,1,0,0,1,0,0,1,0,1,0,0,0,0,1,0,0
1586,0,1,0,1,1,0,1,0,1,0,0,0,0,1,0,0
1590,0,0,0,1,0,1,1,0,1,0,0,0,0,1,0,0
1594,0,0,1,0,1,1,1,0,1,0,0,0,0,1,0,0
1598,0,0,0,0,0,0,0,1,1,0,0,0,0,1,0,0
1602,1,0,1,1,0,0,0,1,1,0,0,0,0,1,0,0
1606,0,0,0,0,0,0,1,1,0,0,0,0,0,1,0,0
1610,0,1,0,1,1,0,1,1,0,0,1,1,1,0,0,0
1614,1,0,1,0,1,1,0,0,1,1,0,1,1,0,0,0
1618,1,1,0,0,0,1,0,1,0,1,0,1,1,0,0,0
1622,0,1,1,1,0,1,1,0,0,1,0,1,1,0,0,0
1626,1,1,0,1,1,0,1,0,0,1,0,1,1,0,0,0
1630,0,0,0,0,1,0,1,0,0,1,0,1,1,0,0,0
1634,1,0,0,1,0,0,1,0,0,1,0,1,1,0,0,0
1638,0,0,1,0,0,1,1,0,1,1,1,1,1,0,0,0
1642,1,1,1,0,0,0,1,0,1,0,0,0,0,1,0,0
1646,0,0,0,1,1,0,1,0,1,0,0,0,0,1,0,0
1650,0,0,0,1,0,1,1,0,1,0,0,0,0,1,0,0
1654,1,0,1,0,1,1,1,0,1,0,0,0,0,1,0,0
1658,0,0,0,0,0,0,0,1,1,0,0,0,0,1,0,0
1662,0,0,1,1,0,0,0,1,1,0,0,0,0,1,0,0
1666,0,1,0,0,0,0,1,1,0,0,0,0,0,1,0,0
1670,1,1,0,1,1,0,1,1,0,0,1,1,1,0,0,0
1674,1,0,1,0,1,1,0,0,1,1,0,1,1,0,0,0
1678,1,1,0,0,0,1,0,1,0,1,0,1,1,0,0,0
1682,0,1,1,1,0,1,1,0,0,1,0,1,1,0,0,0
1686,1,0,0,1,1,0,1,0,0,1,0,1,1,0,0,0
1690,1,1,1,1,0,0,1,0,0,1,0,1,1,0,0,0
1694,0,0,0,1,0,0,1,0,0,1,0,1,1,0,0,0
1698,0,1,0,0,0,1,1,0,1,1,1,1,1,0,0,0
1702,1,1,1,0,0,0,1,0,1,0,0,0,0,1,0,0
1706,0,1,0,1,1,0,1,0,1,0,0,0,0,1,0,0
1710,0,0,0,1,0,1,1,0,1,0,0,0,0,1,0,0
1714,0,0,1,0,1,1,1,0,1,0,0,0,0,1,0,0
1718,0,0,0,0,0,0,0,1,1,0,0,0,0,1,0,0
1722,0,0,1,1,0,0,0,1,1,0,0,0,0,1,0,0
1726,0,0,0,0,0,0,1,1,0,0,0,0,0,1,0,0
1730,1,0,0,1,1,0,1,1,0,0,1,1,1,0,0,0
1734,0,1,1,0,1,1,0,0,1,1,0,1,1,0,0,0
1738,0,0,1,0,0,1,0,1,0,1,0,1,1,0,0,0
1742,1,1,1,1,0,1,1,0,0,1,0,1,1,0,0,0
1746,1,1,0,1,1,0,1,0,0,1,0,1,1,0,0,0
1750,0,0,0,0,1,0,1,0,0,1,0,1,1,0,0,0
1754,1,0,0,1,0,0,1,0,0,1,0,1,1,0,0,0
1758,1,0,0,0,0,1,1,0,1,1,1,1,1,0,0,0
1762,1,0,0,1,0,0,1,0,1,0,0,0,0,1,0,0
1766,0,0,0,1,1,0,1,0,1,0,0,0,0,1,0,0
1770,1,1,1,0,0,1,1,0,1,0,0,0,0,1,0,0
1774,0,0,1,0,1,1,1,0,1,0,0,0,0,1,0,0
1778,1,0,0,0,0,0,0,1,1,0,0,0,0,1,0,0
1782,1,0,1,1,0,0,0,1,1,0,0,0,0,1,0,0
1786,0,1,0,0,0,0,1,1,0,0,0,0,0,1,0,0
1790,0,1,0,1,1,0,1,1,0,0,1,1,1,0,0,0
1794,0,0,1,0,1,1,0,0,1,1,0,1,1,0,0,0
1798,0,0,1,0,0,1,0,1,0,1,0,1,1,0,0,0
1802,0,0,0,0,1,1,1,0,0,1,0,1,1,0,0,0
1806,0,1,0,1,1,0,1,0,0,1,0,1,1,0,0,0
1810,1,1,1,1,0,0,1,0,0,1,0,1,1,0,0,0
1814,1,0,0,1,0,0,1,0,0,1,0,1,1,0,0,0
1818,1,0,0,0,0,1,1,0,1,1,1,1,1,0,0,0
1822,0,0,0,1,0,0,1,0,1,0,0,0,0,1,0,0
1826,0,1,0,1,1,0,1,0,1,0,0,0,0,1,0,0
1830,1,1,1,0,0,1,1,0,1,0,0,0,0,1,0,0
1834,0,0,1,0,1,1,1,0,1,0,0,0,0,1,0,0
1838,0,0,0,0,0,0,0,1,1,0,0,0,0,1,0,0
1842,1,0,1,1,0,0,0,1,1,0,0,0,0,1,0,0
1846,0,1,0,0,0,0,1,1,0,0,0,0,0,1,0,0
1850,0,1,0,1,1,0,1,1,0,0,1,1,1,0,0,0
1854,1,0,1,0,1,1,0,0,1,1,0,1,1,0,0,0
1858,1,0,1,0,0,1,0,1,0,1,0,1,1,0,0,0
1862,0,1,1,1,0,1,1,0,0,1,0,1,1,0,0,0
1866,0,1,0,1,1,0,1,0,0,1,0,1,1,0,0,0
1870,0,0,0,0,1,0,1,0,0,1,0,1,1,0,0,0
1874,0,0,0,1,0,0,1,0,0,1,0,1,1,0,0,0
1878,1,1,0,0,0,1,1,0,1,1,1,1,1,0,0,0
1882,0,0,0,1,0,0,1,0,1,0,0,0,0,1,0,0
1886,1,0,0,1,1,0,1,0,1,0,0,0,0,1,0,0
1890,1,1,1,0,0,1,1,0,1,0,0,0,0,1,0,0
1894,0,0,1,0,1,1,1,0,1,0,0,0,0,1,0,0
1898,1,0,0,0,0,0,0,1,1,0,0,0,0,1,0,0
1902,1,1,0,1,0,0,0,1,1,0,0,0,0,1,0,0
1906,1,1,0,0,0,0,1,1,0,0,0,0,0,1,0,0
1910,0,1,0,1,1,0,1,1,0,0,1,1,1,0,0,0
1914,1,0,1,0,1,1,0,0,1,1,0,1,1,0,0,0
1918,1,1,0,0,0,1,0,1,0,1,0,1,1,0,0,0
1922,1,1,1,1,0,1,1,0,0,1,0,1,1,0,0,0
1926,0,1,0,1,1,0,1,0,0,1,0,1,1,0,0,0
1930,1,0,0,0,1,0,1,0,0,1,0,1,1,0,0,0
1934,1,0,0,1,0,0,1,0,0,1,0,1,1,0,0,0
1938,0,1,0,0,0,1,1,0,1,1,1,1,1,0,0,0
1942,0,0,0,1,0,0,1,0,1,0,0,0,0,1,0,0
1946,0,1,0,1,1,0,1,0,1,0,0,0,0,1,0,0
1950,0,0,0,1,0,1,1,0,1,0,0,0,0,1,0,0
1954,1,1,0,0,1,1,1,0,1,0,0,0,0,1,0,0
1958,1,1,1,1,1,1,1,0,1,0,0,0,0,1,0,0
1962,1,1,0,1,0,0,0,1,1,0,0,0,0,1,0,0
1966,1,1,0,0,0,0,1,1,0,0,0,0,0,1,0,0
1970,0,1,0,1,1,0,1,1,0,0,1,1,1,0,0,0
1974,0,1,1,0,1,1,0,0,1,1,0,1,1,0,0,0
1978,0,0,1,0,0,1,0,1,0,1,0,1,1,0,0,0
1982,1,1,1,1,0,1,1,0,0,1,0,1,1,0,0,0
1986,1,0,0,1,1,0,1,0,0,1,0,1,1,0,0,0
1990,1,1,1,1,0,0,1,0,0,1,0,1,1,0,0,0
1994,0,0,0,1,0,0,1,0,0,1,0,1,1,0,0,0
1998,1,1,1,1,1,0,1,0,1,1,1,1,1,0,0,0
2002,0,0,0,1,0,0,1,0,1,0,0,0,0,1,0,0
2006,1,0,0,1,1,0,1,0,1,0,0,0,0,1,0,0
2010,1,1,1,0,0,1,1,0,1,0,0,0,0,1,0,0
2014,0,0,1,0,1,1,1,0,1,0,0,0,0,1,0,0
2018,1,0,0,0,0,0,0,1,1,0,0,0,0,1,0,0
2022,1,1,0,1,0,0,0,1,1,0,0,0,0,1,0,0
2026,0,0,1,0,0,0,1,1,0,0,0,0,0,1,0,0
2030,0,1,0,1,1,0,1,1,0,0,1,1,1,0,0,0
2034,1,0,1,0,1,1,0,0,1,1,0,1,1,0,0,0
2038,1,0,1,0,0,1,0,1,0,1,0,1,1,0,0,0
2042,1,1,1,1,0,1,1,0,0,1,0,1,1,0,0,0
2046,1,1,0,1,1,0,1,0,0,1,0,1,1,0,0,0
2050,0,0,0,0,1,0,1,0,0,1,0,1,1,0,0,0
2054,1,0,0,1,0,0,1,0,0,1,0,1,1,0,0,0
2058,1,1,1,1,1,0,1,0,1,1,1,1,1,0,0,0
2062,0,0,0,1,0,0,1,0,1,0,0,0,0,1,0,0
2066,0,1,0,1,1,0,1,0,1,0,0,0,0,1,0,0
2070,1,1,1,0,0,1,1,0,1,0,0,0,0,1,0,0
2074,0,0,1,0,1,1,1,0,1,0,0,0,0,1,0,0
2078,0,0,0,0,0,0,0,1,1,0,0,0,0,1,0,0
2082,1,0,1,1,0,0,0,1,1,0,0,0,0,1,0,0
2086,0,1,1,0,0,0,1,1,0,0,0,0,0,1,0,0
2090,1,1,0,1,1,0,1,1,0,0,1,1,1,0,0,0
2094,0,1,1,0,1,1,0,0,1,1,0,1,1,0,0,0
2098,0,0,1,0,0,1,0,1,0,1,0,1,1,0,0,0
2102,0,0,0,0,1,1,1,0,0,1,0,1,1,0,0,0
2106,0,1,0,1,1,0,1,0,0,1,0,1,1,0,0,0
2110,1,1,1,1,0,0,1,0,0,1,0,1,1,0,0,0
2114,1,0,0,1,0,0,1,0,0,1,0,1,1,0,0,0
2118,0,1,1,1,1,0,1,0,1,1,1,1,1,0,0,0
2122,0,0,0,1,0,0,1,0,1,0,0,0,0,1,0,0
2126,0,0,0,1,1,0,1,0,1,0,0,0,0,1,0,0
2130,0,0,0,1,0,1,1,0,1,0,0,0,0,1,0,0
2134,0,0,1,0,1,1,1,0,1,0,0,0,0,1,0,0
2138,1,0,0,0,0,0,0,1,1,0,0,0,0,1,0,0
2142,1,0,1,1,0,0,0,1,1,0,0,0,0,1,0,0
2146,1,1,1,0,0,0,1,1,0,0,0,0,0,1,0,0
2150,0,0,1,1,1,0,1,1,0,0,1,1,1,0,0,0
2154,0,0,1,0,1,1,0,0,1,1,0,1,1,0,0,0
