; CSV generated by libsigrok 0.6.0-git-0f523f2b
; from Saleae Logic16 on Fri Jul 13 13:30:26 2018
; Channels (16/16): 0, 1, 2, 3, 4, 5, 6, 7, 8, 9, 10, 11, 12, 13, 14, 15
; Samplerate: 500 kHz
microseconds,logic,logic,logic,logic,logic,logic,logic,logic,logic,logic,logic,logic,logic,logic,logic,logic
2,0,0,1,0,1,1,1,0,1,1,0,0,1,0,0,0
4,1,1,0,0,1,0,0,1,1,1,0,0,1,0,0,0
8,0,0,1,1,1,0,0,1,1,1,0,0,1,0,0,0
12,0,1,0,1,1,0,0,1,1,1,0,0,1,0,0,0
16,0,0,0,0,1,0,0,1,1,1,0,0,1,0,0,0
20,0,0,1,1,1,1,1,0,1,1,0,0,1,0,0,0
24,1,0,0,1,1,1,1,0,1,1,0,0,1,0,0,0
28,0,0,1,1,1,1,1,0,1,1,0,0,1,0,0,0
32,0,1,0,1,1,0,0,1,1,1,0,0,1,0,0,0
36,0,1,0,0,0,1,0,1,1,1,0,0,1,0,0,0
40,0,0,1,1,1,0,0,1,1,1,0,0,1,0,0,0
44,0,0,0,0,1,0,0,1,1,1,0,0,1,0,0,0
48,0,1,1,1,1,1,1,0,1,1,0,0,1,0,0,0
52,0,0,0,1,1,1,1,0,1,1,0,0,1,0,0,0
56,0,1,1,1,1,1,1,0,1,1,0,0,1,0,0,0
60,1,0,1,1,1,0,0,1,1,1,0,0,1,0,0,0
64,0,0,0,0,0,1,0,1,1,1,0,0,1,0,0,0
68,0,1,1,1,1,0,0,1,1,1,0,0,1,0,0,0
72,0,0,0,1,1,0,0,1,1,1,0,0,1,0,0,0
76,1,1,1,1,1,1,1,0,1,1,0,0,1,0,0,0
80,1,1,1,0,1,1,1,0,1,1,0,0,1,0,0,0
84,0,0,1,1,1,1,1,0,1,1,0,0,1,0,0,0
88,0,0,1,0,1,0,0,1,1,1,0,0,1,0,0,0
92,1,0,0,0,0,1,0,1,1,1,0,0,1,0,0,0
96,1,1,0,0,0,1,0,1,1,1,0,0,1,0,0,0
100,0,0,0,0,1,0,0,1,1,1,0,0,1,0,0,0
104,0,0,1,1,1,1,1,0,1,1,0,0,1,0,0,0
108,0,0,0,1,1,1,1,0,1,1,0,0,1,0,0,0
112,1,1,1,0,1,1,1,0,1,1,0,0,1,0,0,0
116,0,0,0,0,0,0,0,1,1,1,0,0,1,0,0,0
120,0,1,0,1,1,0,0,1,1,1,0,0,1,0,0,0
124,1,0,1,1,1,0,0,1,1,1,0,0,1,0,0,0
128,1,0,1,1,0,0,0,1,1,1,0,0,1,0,0,0
132,0,0,1,1,1,1,1,0,1,1,0,0,1,0,0,0
136,0,0,0,1,1,1,1,0,1,1,0,0,1,0,0,0
140,0,1,1,0,1,1,1,0,1,1,0,0,1,0,0,0
144,1,0,0,1,1,1,1,0,1,1,0,0,1,0,0,0
148,0,0,1,1,0,0,0,1,1,1,0,0,1,0,0,0
152,1,1,1,1,1,0,0,1,1,1,0,0,1,0,0,0
156,1,1,1,1,0,0,0,1,1,1,0,0,1,0,0,0
160,1,1,0,1,1,1,1,0,1,1,0,0,1,0,0,0
164,0,0,0,1,1,1,1,0,1,1,0,0,1,0,0,0
168,0,1,1,0,1,1,1,0,1,1,0,0,1,0,0,0
172,0,0,0,1,1,1,1,0,1,1,0,0,1,0,0,0
176,1,0,0,1,0,0,0,1,1,1,0,0,1,0,0,0
180,1,0,0,0,0,1,0,1,1,1,0,0,1,0,0,0
184,0,1,1,1,0,0,0,1,1,1,0,0,1,0,0,0
188,0,0,1,1,1,1,1,0,1,1,0,0,1,0,0,0
192,0,0,0,1,1,1,1,0,1,1,0,0,1,0,0,0
200,1,0,0,1,1,1,1,0,1,1,0,0,1,0,0,0
204,1,1,0,1,1,1,1,0,1,1,0,0,1,0,0,0
208,1,0,1,1,1,0,0,1,1,1,0,0,1,0,0,0
212,0,0,0,1,1,0,0,1,1,1,0,0,1,0,0,0
216,1,1,1,1,1,1,1,0,1,1,0,0,1,0,0,0
220,0,0,0,1,1,1,1,0,1,1,0,0,1,0,0,0
224,1,0,0,1,1,1,1,0,1,1,0,0,1,0,0,0
232,0,1,1,1,1,1,1,0,1,1,0,0,1,0,0,0
236,0,1,1,0,0,1,0,1,1,1,0,0,1,0,0,0
240,0,0,1,1,1,0,0,1,1,1,0,0,1,0,0,0
244,0,0,0,1,0,0,0,1,1,1,0,0,1,0,0,0
248,0,1,0,1,1,1,1,0,1,1,0,0,1,0,0,0
252,1,0,0,1,1,1,1,0,1,1,0,0,1,0,0,0
256,0,0,0,1,1,1,1,0,1,1,0,0,1,0,0,0
260,1,0,0,0,1,0,0,1,1,1,0,0,1,0,0,0
264,1,1,1,0,0,1,0,1,1,1,0,0,1,0,0,0
268,0,0,1,1,1,0,0,1,1,1,0,0,1,0,0,0
272,1,1,1,0,1,0,0,1,1,1,0,0,1,0,0,0
276,0,1,1,1,1,1,1,0,1,1,0,0,1,0,0,0
280,1,1,0,1,1,1,1,0,1,1,0,0,1,0,0,0
284,1,0,1,1,1,1,1,0,1,1,0,0,1,0,0,0
288,1,1,0,0,1,0,0,1,1,1,0,0,1,0,0,0
292,1,0,0,0,0,1,0,1,1,1,0,0,1,0,0,0
296,0,0,0,0,0,1,0,1,1,1,0,0,1,0,0,0
300,1,1,1,0,1,0,0,1,1,1,0,0,1,0,0,0
304,1,1,1,1,1,1,1,0,1,1,0,0,1,0,0,0
308,0,0,1,1,1,1,1,0,1,1,0,0,1,0,0,0
316,0,0,1,1,0,0,0,1,1,1,0,0,1,0,0,0
320,0,0,1,0,0,1,0,1,1,1,0,0,1,0,0,0
324,1,0,1,0,0,1,0,1,1,1,0,0,1,0,0,0
328,0,0,0,1,1,0,0,1,1,1,0,0,1,0,0,0
332,1,1,0,0,0,0,0,1,1,1,0,0,1,0,0,0
336,1,0,1,1,1,1,1,0,1,1,0,0,1,0,0,0
340,0,0,1,1,1,1,1,0,1,1,0,0,1,0,0,0
344,1,0,1,0,0,0,0,1,1,1,0,0,1,0,0,0
348,1,1,1,1,1,0,0,1,1,1,0,0,1,0,0,0
352,1,0,1,0,0,1,0,1,1,1,0,0,1,0,0,0
356,1,1,0,1,1,0,0,1,1,1,0,0,1,0,0,0
360,0,1,1,0,0,0,0,1,1,1,0,0,1,0,0,0
364,0,1,1,1,1,1,1,0,1,1,0,0,1,0,0,0
368,1,0,1,1,1,1,1,0,1,1,0,0,1,0,0,0
372,0,0,0,0,0,0,0,1,1,1,0,0,1,0,0,0
376,1,0,1,1,1,0,0,1,1,1,0,0,1,0,0,0
380,0,0,0,1,0,1,0,1,1,1,0,0,1,0,0,0
384,1,0,0,1,1,0,0,1,1,1,0,0,1,0,0,0
388,0,1,1,0,0,0,0,1,1,1,0,0,1,0,0,0
392,1,1,1,1,1,1,1,0,1,1,0,0,1,0,0,0
396,0,1,1,1,1,1,1,0,1,1,0,0,1,0,0,0
400,1,0,1,1,1,1,1,0,1,1,0,0,1,0,0,0
404,0,0,0,0,1,0,0,1,1,1,0,0,1,0,0,0
408,1,1,0,0,0,1,0,1,1,1,0,0,1,0,0,0
412,1,1,0,1,1,0,0,1,1,1,0,0,1,0,0,0
416,0,0,1,1,0,0,0,1,1,1,0,0,1,0,0,0
420,1,0,0,0,0,0,0,1,1,1,0,0,1,0,0,0
424,1,1,1,1,1,1,1,0,1,1,0,0,1,0,0,0
428,0,0,0,0,0,0,0,1,1,1,0,0,1,0,0,0
432,0,0,1,0,0,0,0,1,1,1,0,0,1,0,0,0
436,0,0,1,0,0,1,0,1,1,1,0,0,1,0,0,0
440,0,1,0,0,0,1,0,1,1,1,0,0,1,0,0,0
444,0,0,0,1,0,0,0,1,1,1,0,0,1,0,0,0
448,1,0,0,0,0,0,0,1,1,1,0,0,1,0,0,0
452,0,0,0,0,0,0,0,1,1,1,0,0,1,0,0,0
464,1,1,1,1,1,0,0,1,1,1,0,0,1,0,0,0
468,0,0,0,0,0,1,0,1,1,1,0,0,1,0,0,0
472,1,1,1,1,0,0,0,1,1,1,0,0,1,0,0,0
476,1,0,0,0,0,0,0,1,1,1,0,0,1,0,0,0
484,0,0,0,0,0,0,0,1,1,1,0,0,1,0,0,0
488,0,1,0,0,0,0,0,1,1,1,0,0,1,0,0,0
492,1,1,1,1,1,0,0,1,1,1,0,0,1,0,0,0
496,0,1,1,0,0,1,0,1,1,1,0,0,1,0,0,0
500,1,1,1,0,1,0,0,1,1,1,0,0,1,0,0,0
504,0,1,0,0,0,0,0,1,1,1,0,0,1,0,0,0
508,0,0,0,0,0,0,0,1,1,1,0,0,1,0,0,0
512,1,0,0,0,0,0,0,1,1,1,0,0,1,0,0,0
516,0,1,0,0,0,0,0,1,1,1,0,0,1,0,0,0
520,0,1,1,1,1,0,0,1,1,1,0,0,1,0,0,0
524,1,0,1,0,0,1,0,1,1,1,0,0,1,0,0,0
528,0,1,0,1,1,0,0,1,1,1,0,0,1,0,0,0
532,0,0,1,0,0,0,0,1,1,1,0,0,1,0,0,0
536,1,0,0,0,0,0,0,1,1,1,0,0,1,0,0,0
540,0,1,0,0,0,0,0,1,1,1,0,0,1,0,0,0
548,1,1,1,1,1,0,0,1,1,1,0,0,1,0,0,0
552,1,0,1,0,0,1,0,1,1,1,0,0,1,0,0,0
556,1,0,0,0,0,1,0,1,1,1,0,0,1,0,0,0
560,0,1,1,0,0,0,0,1,1,1,0,0,1,0,0,0
564,0,1,0,0,0,0,0,1,1,1,0,0,1,0,0,0
568,1,1,0,0,0,0,0,1,1,1,0,0,1,0,0,0
576,1,0,0,0,1,0,0,1,1,1,0,0,1,0,0,0
580,1,0,0,1,0,1,0,1,1,1,0,0,1,0,0,0
584,0,1,0,0,0,1,0,1,1,1,0,0,1,0,0,0
588,0,0,0,1,0,0,0,1,1,1,0,0,1,0,0,0
592,0,0,1,0,0,0,0,1,1,1,0,0,1,0,0,0
596,1,0,1,0,0,0,0,1,1,1,0,0,1,0,0,0
600,0,1,0,0,0,0,0,1,1,1,0,0,1,0,0,0
604,1,0,0,1,0,0,0,1,1,1,0,0,1,0,0,0
608,1,0,0,1,0,1,0,1,1,1,0,0,1,0,0,0
612,0,1,0,0,0,1,0,1,1,1,0,0,1,0,0,0
616,0,1,1,1,0,0,0,1,1,1,0,0,1,0,0,0
620,0,0,1,0,0,0,0,1,1,1,0,0,1,0,0,0
624,1,1,0,0,0,0,0,1,1,1,0,0,1,0,0,0
628,0,1,0,0,0,0,0,1,1,1,0,0,1,0,0,0
632,0,1,1,0,0,0,0,1,1,1,0,0,1,0,0,0
636,0,1,1,0,0,1,0,1,1,1,0,0,1,0,0,0
640,1,0,1,0,0,1,0,1,1,1,0,0,1,0,0,0
644,0,0,1,1,0,0,0,1,1,1,0,0,1,0,0,0
648,0,0,1,0,0,0,0,1,1,1,0,0,1,0,0,0
656,1,0,1,0,0,0,0,1,1,1,0,0,1,0,0,0
660,0,0,1,0,0,0,0,1,1,1,0,0,1,0,0,0
664,0,1,1,0,0,1,0,1,1,1,0,0,1,0,0,0
668,1,0,1,0,0,1,0,1,1,1,0,0,1,0,0,0
672,0,0,0,0,1,0,0,1,1,1,0,0,1,0,0,0
676,1,1,1,0,0,0,0,1,1,1,0,0,1,0,0,0
680,0,0,1,0,0,0,0,1,1,1,0,0,1,0,0,0
688,1,0,1,0,0,0,0,1,1,1,0,0,1,0,0,0
692,1,1,0,1,1,0,0,1,1,1,0,0,1,0,0,0
696,1,1,1,0,0,1,0,1,1,1,0,0,1,0,0,0
700,1,0,1,0,1,0,0,1,1,1,0,0,1,0,0,0
704,0,1,1,0,0,0,0,1,1,1,0,0,1,0,0,0
720,1,1,1,0,1,0,0,1,1,1,0,0,1,0,0,0
724,1,1,1,0,0,1,0,1,1,1,0,0,1,0,0,0
728,0,0,0,1,1,0,0,1,1,1,0,0,1,0,0,0
732,0,1,1,0,0,0,0,1,1,1,0,0,1,0,0,0
740,1,1,1,0,0,0,0,1,1,1,0,0,1,0,0,0
744,0,1,1,0,0,0,0,1,1,1,0,0,1,0,0,0
748,0,0,0,0,1,0,0,1,1,1,0,0,1,0,0,0
752,0,1,1,0,0,1,0,1,1,1,0,0,1,0,0,0
756,1,1,0,0,0,1,0,1,1,1,0,0,1,0,0,0
760,1,0,0,1,0,0,0,1,1,1,0,0,1,0,0,0
764,0,0,0,1,0,0,0,1,1,1,0,0,1,0,0,0
768,0,1,1,0,0,0,0,1,1,1,0,0,1,0,0,0
776,0,0,0,1,0,0,0,1,1,1,0,0,1,0,0,0
780,0,0,1,0,0,1,0,1,1,1,0,0,1,0,0,0
784,0,0,0,0,0,1,0,1,1,1,0,0,1,0,0,0
788,0,1,0,1,0,0,0,1,1,1,0,0,1,0,0,0
792,1,1,1,0,0,0,0,1,1,1,0,0,1,0,0,0
796,0,0,0,1,0,0,0,1,1,1,0,0,1,0,0,0
800,1,1,1,0,0,0,0,1,1,1,0,0,1,0,0,0
804,1,1,0,1,0,0,0,1,1,1,0,0,1,0,0,0
808,0,1,1,0,0,1,0,1,1,1,0,0,1,0,0,0
812,0,0,0,0,0,1,0,1,1,1,0,0,1,0,0,0
816,0,0,1,1,0,0,0,1,1,1,0,0,1,0,0,0
820,0,0,0,1,0,0,0,1,1,1,0,0,1,0,0,0
824,1,1,1,0,0,0,0,1,1,1,0,0,1,0,0,0
836,1,1,1,1,1,0,0,1,1,1,0,0,1,0,0,0
840,1,0,0,1,0,1,0,1,1,1,0,0,1,0,0,0
844,1,0,0,0,1,0,0,1,1,1,0,0,1,0,0,0
848,0,1,0,1,0,0,0,1,1,1,0,0,1,0,0,0
852,0,0,0,1,0,0,0,1,1,1,0,0,1,0,0,0
856,0,1,0,1,0,0,0,1,1,1,0,0,1,0,0,0
860,0,0,0,1,0,0,0,1,1,1,0,0,1,0,0,0
864,1,0,1,1,1,0,0,1,1,1,0,0,1,0,0,0
868,0,0,1,1,0,1,0,1,1,1,0,0,1,0,0,0
872,0,1,0,0,1,0,0,1,1,1,0,0,1,0,0,0
876,1,1,0,1,0,0,0,1,1,1,0,0,1,0,0,0
880,1,0,0,1,0,0,0,1,1,1,0,0,1,0,0,0
892,0,0,0,0,0,1,0,1,1,1,0,0,1,0,0,0
896,1,0,1,1,0,1,0,1,1,1,0,0,1,0,0,0
900,1,1,1,0,1,0,0,1,1,1,0,0,1,0,0,0
904,1,1,0,1,0,0,0,1,1,1,0,0,1,0,0,0
908,1,0,0,1,0,0,0,1,1,1,0,0,1,0,0,0
912,0,1,0,1,0,0,0,1,1,1,0,0,1,0,0,0
920,0,1,1,1,1,0,0,1,1,1,0,0,1,0,0,0
924,1,1,1,1,0,1,0,1,1,1,0,0,1,0,0,0
928,0,1,1,1,1,0,0,1,1,1,0,0,1,0,0,0
932,0,0,1,1,0,0,0,1,1,1,0,0,1,0,0,0
936,1,0,0,1,0,0,0,1,1,1,0,0,1,0,0,0
940,0,1,0,1,0,0,0,1,1,1,0,0,1,0,0,0
944,1,0,0,1,0,0,0,1,1,1,0,0,1,0,0,0
948,0,1,0,1,1,0,0,1,1,1,0,0,1,0,0,0
952,0,1,1,1,0,1,0,1,1,1,0,0,1,0,0,0
956,1,0,1,0,0,1,0,1,1,1,0,0,1,0,0,0
960,0,1,0,0,1,0,0,1,1,1,0,0,1,0,0,0
964,1,1,0,1,0,0,0,1,1,1,0,0,1,0,0,0
968,0,1,0,1,0,0,0,1,1,1,0,0,1,0,0,0
972,1,1,0,1,0,0,0,1,1,1,0,0,1,0,0,0
976,0,1,0,1,1,0,0,1,1,1,0,0,1,0,0,0
980,1,1,0,0,1,1,0,1,1,1,0,0,1,0,0,0
984,0,1,0,1,0,1,0,1,1,1,0,0,1,0,0,0
988,1,0,0,0,1,0,0,1,1,1,0,0,1,0,0,0
992,0,0,1,1,0,0,0,1,1,1,0,0,1,0,0,0
996,1,1,0,1,0,0,0,1,1,1,0,0,1,0,0,0
1000,0,1,0,1,0,0,0,1,1,1,0,0,1,0,0,0
1004,0,1,0,1,1,0,0,1,1,1,0,0,1,0,0,0
1008,1,1,0,0,1,1,0,1,1,1,0,0,1,0,0,0
1012,0,0,1,1,0,1,0,1,1,1,0,0,1,0,0,0
1016,0,0,0,1,1,0,0,1,1,1,0,0,1,0,0,0
1020,0,1,1,1,0,0,0,1,1,1,0,0,1,0,0,0
1024,0,0,1,1,0,0,0,1,1,1,0,0,1,0,0,0
1028,1,1,0,1,0,0,0,1,1,1,0,0,1,0,0,0
1032,0,0,0,1,1,0,0,1,1,1,0,0,1,0,0,0
1036,0,0,0,0,1,1,0,1,1,1,0,0,1,0,0,0
1040,1,1,0,0,1,1,0,1,1,1,0,0,1,0,0,0
1044,0,1,0,1,1,0,0,1,1,1,0,0,1,0,0,0
1048,0,1,1,1,0,0,0,1,1,1,0,0,1,0,0,0
1052,1,0,1,1,0,0,0,1,1,1,0,0,1,0,0,0
1056,0,0,1,1,0,0,0,1,1,1,0,0,1,0,0,0
1060,0,1,0,1,1,0,0,1,1,1,0,0,1,0,0,0
1064,1,0,1,0,1,1,0,1,1,1,0,0,1,0,0,0
1068,1,1,0,0,1,1,0,1,1,1,0,0,1,0,0,0
1072,1,0,0,1,1,0,0,1,1,1,0,0,1,0,0,0
1076,1,1,1,1,0,0,0,1,1,1,0,0,1,0,0,0
1080,0,0,0,0,1,0,0,1,1,1,0,0,1,0,0,0
1084,1,1,1,1,0,0,0,1,1,1,0,0,1,0,0,0
1088,1,0,1,0,1,0,0,1,1,1,0,0,1,0,0,0
1092,0,1,0,0,1,1,0,1,1,1,0,0,1,0,0,0
1096,0,1,1,0,1,1,0,1,1,1,0,0,1,0,0,0
1100,0,1,0,0,0,1,0,1,1,1,0,0,1,0,0,0
1104,0,0,1,0,1,0,0,1,1,1,0,0,1,0,0,0
1108,0,0,0,0,1,0,0,1,1,1,0,0,1,0,0,0
1112,1,1,1,1,0,0,0,1,1,1,0,0,1,0,0,0
1116,1,1,1,0,1,0,0,1,1,1,0,0,1,0,0,0
1120,0,0,0,0,1,1,0,1,1,1,0,0,1,0,0,0
1124,1,0,0,1,1,1,0,1,1,1,0,0,1,0,0,0
1128,0,1,0,0,0,1,0,1,1,1,0,0,1,0,0,0
1132,0,0,1,0,1,0,0,1,1,1,0,0,1,0,0,0
1136,1,0,0,0,1,0,0,1,1,1,0,0,1,0,0,0
1140,1,1,1,1,0,0,0,1,1,1,0,0,1,0,0,0
1144,1,0,0,0,1,0,0,1,1,1,0,0,1,0,0,0
1148,0,0,0,0,1,1,0,1,1,1,0,0,1,0,0,0
1152,0,1,0,1,1,1,0,1,1,1,0,0,1,0,0,0
1156,0,0,0,1,0,1,0,1,1,1,0,0,1,0,0,0
1160,1,1,0,1,1,0,0,1,1,1,0,0,1,0,0,0
1164,0,0,0,0,1,0,0,1,1,1,0,0,1,0,0,0
1168,1,0,0,0,1,0,0,1,1,1,0,0,1,0,0,0
1172,0,1,0,0,1,0,0,1,1,1,0,0,1,0,0,0
1176,0,0,0,0,1,1,0,1,1,1,0,0,1,0,0,0
1180,0,1,0,1,1,1,0,1,1,1,0,0,1,0,0,0
1184,1,1,1,1,0,1,0,1,1,1,0,0,1,0,0,0
1188,0,0,1,1,1,0,0,1,1,1,0,0,1,0,0,0
1192,0,1,0,0,1,0,0,1,1,1,0,0,1,0,0,0
1196,0,0,0,0,1,0,0,1,1,1,0,0,1,0,0,0
1200,1,1,0,0,1,0,0,1,1,1,0,0,1,0,0,0
1204,0,1,1,0,0,1,0,1,1,1,0,0,1,0,0,0
1208,1,1,0,1,1,1,0,1,1,1,0,0,1,0,0,0
1212,0,0,0,0,1,1,0,1,1,1,0,0,1,0,0,0
1216,1,1,1,1,1,0,0,1,1,1,0,0,1,0,0,0
1220,0,1,0,0,1,0,0,1,1,1,0,0,1,0,0,0
1224,1,0,0,0,1,0,0,1,1,1,0,0,1,0,0,0
1228,0,0,0,0,1,0,0,1,1,1,0,0,1,0,0,0
1232,1,1,1,0,0,1,0,1,1,1,0,0,1,0,0,0
1236,0,1,0,1,1,1,0,1,1,1,0,0,1,0,0,0
1240,0,1,0,0,1,1,0,1,1,1,0,0,1,0,0,0
1244,1,0,1,0,0,1,0,1,1,1,0,0,1,0,0,0
1248,1,0,1,0,1,0,0,1,1,1,0,0,1,0,0,0
1252,1,1,0,0,1,0,0,1,1,1,0,0,1,0,0,0
1256,1,0,0,0,1,0,0,1,1,1,0,0,1,0,0,0
1260,0,0,1,1,1,0,0,1,1,1,0,0,1,0,0,0
1264,0,1,0,1,1,1,0,1,1,1,0,0,1,0,0,0
1268,1,1,1,0,1,1,0,1,1,1,0,0,1,0,0,0
1272,1,1,0,1,0,1,0,1,1,1,0,0,1,0,0,0
1276,0,1,1,0,1,0,0,1,1,1,0,0,1,0,0,0
1280,0,0,1,0,1,0,0,1,1,1,0,0,1,0,0,0
1288,1,1,1,1,1,0,0,1,1,1,0,0,1,0,0,0
1292,0,1,0,1,1,1,0,1,1,1,0,0,1,0,0,0
1296,0,0,0,1,1,1,0,1,1,1,0,0,1,0,0,0
1300,0,1,1,1,0,1,0,1,1,1,0,0,1,0,0,0
1304,0,1,0,1,1,0,0,1,1,1,0,0,1,0,0,0
1308,1,0,1,0,1,0,0,1,1,1,0,0,1,0,0,0
1312,1,1,0,0,1,0,0,1,1,1,0,0,1,0,0,0
1316,1,1,1,1,1,0,0,1,1,1,0,0,1,0,0,0
1320,1,0,0,1,1,1,0,1,1,1,0,0,1,0,0,0
1324,1,0,0,0,0,0,1,1,1,1,0,0,1,0,0,0
1328,0,0,0,0,1,1,0,1,1,1,0,0,1,0,0,0
1332,1,0,0,1,1,0,0,1,1,1,0,0,1,0,0,0
1336,1,0,1,0,1,0,0,1,1,1,0,0,1,0,0,0
1340,0,0,1,0,1,0,0,1,1,1,0,0,1,0,0,0
1344,1,0,0,1,1,0,0,1,1,1,0,0,1,0,0,0
1348,0,0,0,1,1,1,0,1,1,1,0,0,1,0,0,0
1352,1,0,0,0,0,0,1,1,1,1,0,0,1,0,0,0
1356,1,1,0,1,0,1,0,1,1,1,0,0,1,0,0,0
1360,1,1,0,0,0,1,0,1,1,1,0,0,1,0,0,0
1364,1,1,1,0,1,0,0,1,1,1,0,0,1,0,0,0
1372,0,0,0,1,1,0,0,1,1,1,0,0,1,0,0,0
1376,0,0,1,0,1,1,0,1,1,1,0,0,1,0,0,0
1380,1,0,0,0,0,0,1,1,1,1,0,0,1,0,0,0
1384,0,1,1,0,1,1,0,1,1,1,0,0,1,0,0,0
1388,1,1,1,0,0,1,0,1,1,1,0,0,1,0,0,0
1392,0,0,0,1,1,0,0,1,1,1,0,0,1,0,0,0
1396,1,1,1,0,1,0,0,1,1,1,0,0,1,0,0,0
1400,0,1,1,0,1,0,0,1,1,1,0,0,1,0,0,0
1404,0,0,0,0,1,1,0,1,1,1,0,0,1,0,0,0
1408,1,0,1,0,0,0,1,1,1,1,0,0,1,0,0,0
1412,1,0,1,0,1,1,0,1,1,1,0,0,1,0,0,0
1416,0,1,0,0,0,1,0,1,1,1,0,0,1,0,0,0
1420,0,0,0,1,1,0,0,1,1,1,0,0,1,0,0,0
1424,1,0,0,1,1,0,0,1,1,1,0,0,1,0,0,0
1432,1,0,1,1,1,0,0,1,1,1,0,0,1,0,0,0
1436,0,0,0,0,0,0,1,1,1,1,0,0,1,0,0,0
1440,0,0,1,0,1,1,0,1,1,1,0,0,1,0,0,0
1444,1,0,1,0,0,1,0,1,1,1,0,0,1,0,0,0
1448,0,0,1,1,1,0,0,1,1,1,0,0,1,0,0,0
1452,0,0,0,1,1,0,0,1,1,1,0,0,1,0,0,0
1464,1,0,1,0,1,1,0,1,1,1,0,0,1,0,0,0
1468,0,1,1,0,1,1,0,1,1,1,0,0,1,0,0,0
1472,0,0,1,0,0,1,0,1,1,1,0,0,1,0,0,0
1476,0,1,0,1,1,0,0,1,1,1,0,0,1,0,0,0
1480,0,0,0,1,1,0,0,1,1,1,0,0,1,0,0,0
1484,1,1,1,0,1,0,0,1,1,1,0,0,1,0,0,0
1488,1,0,0,1,1,0,0,1,1,1,0,0,1,0,0,0
1492,1,1,0,1,0,1,0,1,1,1,0,0,1,0,0,0
1496,1,1,1,0,1,1,0,1,1,1,0,0,1,0,0,0
1500,1,0,1,0,0,1,0,1,1,1,0,0,1,0,0,0
1504,0,1,0,1,1,0,0,1,1,1,0,0,1,0,0,0
1508,0,0,0,1,1,0,0,1,1,1,0,0,1,0,0,0
1512,0,1,1,0,1,0,0,1,1,1,0,0,1,0,0,0
1516,1,0,0,1,1,0,0,1,1,1,0,0,1,0,0,0
1520,0,1,0,1,1,0,0,1,1,1,0,0,1,0,0,0
1524,1,0,0,0,1,1,0,1,1,1,0,0,1,0,0,0
1528,0,1,1,0,0,1,0,1,1,1,0,0,1,0,0,0
1532,1,0,0,1,1,0,0,1,1,1,0,0,1,0,0,0
1536,0,0,0,1,1,0,0,1,1,1,0,0,1,0,0,0
1540,0,1,1,0,1,0,0,1,1,1,0,0,1,0,0,0
1544,1,0,0,1,1,0,0,1,1,1,0,0,1,0,0,0
1552,0,0,0,1,0,1,0,1,1,1,0,0,1,0,0,0
1556,0,1,0,0,0,1,0,1,1,1,0,0,1,0,0,0
1560,1,1,0,1,1,0,0,1,1,1,0,0,1,0,0,0
1564,0,1,0,1,1,0,0,1,1,1,0,0,1,0,0,0
1568,0,0,1,0,1,0,0,1,1,1,0,0,1,0,0,0
1572,0,0,0,1,1,0,0,1,1,1,0,0,1,0,0,0
1576,0,1,0,1,1,0,0,1,1,1,0,0,1,0,0,0
1580,1,0,1,1,1,0,0,1,1,1,0,0,1,0,0,0
1584,1,0,0,1,0,1,0,1,1,1,0,0,1,0,0,0
1588,1,1,0,1,1,0,0,1,1,1,0,0,1,0,0,0
1592,0,1,0,1,1,0,0,1,1,1,0,0,1,0,0,0
1596,1,1,0,0,1,0,0,1,1,1,0,0,1,0,0,0
1600,0,0,0,1,1,0,0,1,1,1,0,0,1,0,0,0
1604,0,1,0,1,1,0,0,1,1,1,0,0,1,0,0,0
1608,1,1,1,1,1,0,0,1,1,1,0,0,1,0,0,0
1612,1,0,0,1,0,1,0,1,1,1,0,0,1,0,0,0
1616,0,1,0,1,1,0,0,1,1,1,0,0,1,0,0,0
1624,0,1,0,0,1,0,0,1,1,1,0,0,1,0,0,0
1628,1,0,0,1,1,0,0,1,1,1,0,0,1,0,0,0
1636,1,1,1,1,1,0,0,1,1,1,0,0,1,0,0,0
1640,0,0,1,0,0,1,0,1,1,1,0,0,1,0,0,0
1644,1,1,0,1,1,0,0,1,1,1,0,0,1,0,0,0
1648,1,0,0,1,1,0,0,1,1,1,0,0,1,0,0,0
1652,1,0,1,0,1,0,0,1,1,1,0,0,1,0,0,0
1660,0,1,0,1,1,0,0,1,1,1,0,0,1,0,0,0
1664,0,0,1,1,1,0,0,1,1,1,0,0,1,0,0,0
1668,0,1,1,0,0,1,0,1,1,1,0,0,1,0,0,0
1672,0,1,0,0,0,1,0,1,1,1,0,0,1,0,0,0
1676,1,1,0,1,1,0,0,1,1,1,0,0,1,0,0,0
1680,0,0,0,1,1,0,0,1,1,1,0,0,1,0,0,0
1688,0,0,1,1,1,0,0,1,1,1,0,0,1,0,0,0
1692,1,1,0,1,1,0,0,1,1,1,0,0,1,0,0,0
1696,1,1,0,1,0,1,0,1,1,1,0,0,1,0,0,0
1700,1,0,1,0,0,1,0,1,1,1,0,0,1,0,0,0
1704,1,1,0,1,1,0,0,1,1,1,0,0,1,0,0,0
1708,0,1,0,1,1,0,0,1,1,1,0,0,1,0,0,0
1712,0,0,0,1,1,0,0,1,1,1,0,0,1,0,0,0
1716,0,1,0,1,1,0,0,1,1,1,0,0,1,0,0,0
1720,0,0,1,1,1,0,0,1,1,1,0,0,1,0,0,0
1724,0,1,1,0,1,1,0,1,1,1,0,0,1,0,0,0
1728,0,0,1,1,0,1,0,1,1,1,0,0,1,0,0,0
1732,1,1,0,1,1,0,0,1,1,1,0,0,1,0,0,0
1740,1,0,0,1,1,0,0,1,1,1,0,0,1,0,0,0
1744,1,1,0,1,1,0,0,1,1,1,0,0,1,0,0,0
1748,1,0,1,1,1,0,0,1,1,1,0,0,1,0,0,0
1752,0,1,1,0,1,1,0,1,1,1,0,0,1,0,0,0
1756,1,1,1,1,0,1,0,1,1,1,0,0,1,0,0,0
1760,1,0,1,1,1,0,0,1,1,1,0,0,1,0,0,0
1764,1,1,0,1,1,0,0,1,1,1,0,0,1,0,0,0
1768,1,0,0,1,1,0,0,1,1,1,0,0,1,0,0,0
1772,1,0,1,1,1,0,0,1,1,1,0,0,1,0,0,0
1776,0,1,1,1,1,0,0,1,1,1,0,0,1,0,0,0
1780,0,0,1,1,1,1,0,1,1,1,0,0,1,0,0,0
1784,1,0,1,0,1,1,0,1,1,1,0,0,1,0,0,0
1788,1,1,1,1,1,0,0,1,1,1,0,0,1,0,0,0
1792,0,0,1,1,1,0,0,1,1,1,0,0,1,0,0,0
1800,1,1,0,1,1,0,0,1,1,1,0,0,1,0,0,0
1804,1,1,1,0,0,1,0,1,1,1,0,0,1,0,0,0
1808,1,1,0,1,1,1,0,1,1,1,0,0,1,0,0,0
1812,0,1,1,1,1,1,0,1,1,1,0,0,1,0,0,0
1816,1,1,0,0,0,1,0,1,1,1,0,0,1,0,0,0
1820,0,0,1,1,1,0,0,1,1,1,0,0,1,0,0,0
1828,1,0,1,1,1,0,0,1,1,1,0,0,1,0,0,0
1832,0,0,1,1,1,0,0,1,1,1,0,0,1,0,0,0
1836,1,1,0,1,1,1,0,1,1,1,0,0,1,0,0,0
1840,0,0,1,1,1,1,0,1,1,1,0,0,1,0,0,0
1844,0,1,0,0,0,1,0,1,1,1,0,0,1,0,0,0
1848,0,0,0,0,0,1,0,1,1,1,0,0,1,0,0,0
1852,0,0,1,1,1,0,0,1,1,1,0,0,1,0,0,0
1860,1,0,1,1,1,0,0,1,1,1,0,0,1,0,0,0
1864,1,0,0,0,1,1,0,1,1,1,0,0,1,0,0,0
1868,1,1,1,1,1,1,0,1,1,1,0,0,1,0,0,0
1872,0,1,1,0,0,1,0,1,1,1,0,0,1,0,0,0
1876,0,1,1,1,1,0,0,1,1,1,0,0,1,0,0,0
1880,1,0,1,1,1,0,0,1,1,1,0,0,1,0,0,0
1884,1,1,0,1,1,0,0,1,1,1,0,0,1,0,0,0
1888,0,0,1,1,1,0,0,1,1,1,0,0,1,0,0,0
1892,1,1,0,1,0,1,0,1,1,1,0,0,1,0,0,0
1896,0,0,1,0,1,1,0,1,1,1,0,0,1,0,0,0
1900,1,1,0,0,0,1,0,1,1,1,0,0,1,0,0,0
1904,0,1,1,1,1,0,0,1,1,1,0,0,1,0,0,0
1908,1,0,1,1,1,0,0,1,1,1,0,0,1,0,0,0
1920,0,1,1,1,1,0,0,1,1,1,0,0,1,0,0,0
1924,1,1,1,1,0,1,0,1,1,1,0,0,1,0,0,0
1928,1,1,0,1,0,1,0,1,1,1,0,0,1,0,0,0
1932,0,0,0,0,0,1,0,1,1,1,0,0,1,0,0,0
1936,0,1,1,1,1,0,0,1,1,1,0,0,1,0,0,0
1940,1,1,0,1,1,0,0,1,1,1,0,0,1,0,0,0
1944,0,0,1,1,1,0,0,1,1,1,0,0,1,0,0,0
1948,0,1,1,1,1,0,0,1,1,1,0,0,1,0,0,0
1952,1,0,0,1,0,1,0,1,1,1,0,0,1,0,0,0
1956,0,0,1,1,0,1,0,1,1,1,0,0,1,0,0,0
1960,0,1,1,1,1,0,0,1,1,1,0,0,1,0,0,0
1964,1,0,1,1,1,0,0,1,1,1,0,0,1,0,0,0
1968,0,1,0,1,1,0,0,1,1,1,0,0,1,0,0,0
1972,0,0,1,1,1,0,0,1,1,1,0,0,1,0,0,0
1976,0,1,1,1,1,0,0,1,1,1,0,0,1,0,0,0
1980,0,1,0,0,0,1,0,1,1,1,0,0,1,0,0,0
1984,0,1,1,1,0,1,0,1,1,1,0,0,1,0,0,0
1988,1,1,1,1,1,0,0,1,1,1,0,0,1,0,0,0
1996,0,1,1,0,1,0,0,1,1,1,0,0,1,0,0,0
2000,0,0,1,1,1,0,0,1,1,1,0,0,1,0,0,0
2008,0,0,0,0,0,1,0,1,1,1,0,0,1,0,0,0
2012,0,0,1,1,0,1,0,1,1,1,0,0,1,0,0,0
2016,1,1,1,1,1,0,0,1,1,1,0,0,1,0,0,0
2024,0,0,0,1,1,0,0,1,1,1,0,0,1,0,0,0
2028,0,1,0,1,1,0,0,1,1,1,0,0,1,0,0,0
2032,0,1,1,1,1,0,0,1,1,1,0,0,1,0,0,0
2040,1,1,1,0,0,1,0,1,1,1,0,0,1,0,0,0
2044,0,1,1,1,1,0,0,1,1,1,0,0,1,0,0,0
2052,0,0,0,1,1,0,0,1,1,1,0,0,1,0,0,0
2056,0,1,0,1,1,0,0,1,1,1,0,0,1,0,0,0
2060,0,1,1,1,1,0,0,1,1,1,0,0,1,0,0,0
2064,0,0,0,0,0,1,0,1,1,1,0,0,1,0,0,0
2068,0,0,1,1,0,1,0,1,1,1,0,0,1,0,0,0
2072,0,0,0,0,0,1,0,1,1,1,0,0,1,0,0,0
2076,1,1,1,1,1,0,0,1,1,1,0,0,1,0,0,0
2080,1,1,1,0,1,0,0,1,1,1,0,0,1,0,0,0
2084,1,0,1,0,1,0,0,1,1,1,0,0,1,0,0,0
2088,0,0,1,1,1,0,0,1,1,1,0,0,1,0,0,0
2092,0,1,1,1,1,0,0,1,1,1,0,0,1,0,0,0
2096,0,0,1,1,0,1,0,1,1,1,0,0,1,0,0,0
2100,0,1,0,0,0,1,0,1,1,1,0,0,1,0,0,0
2104,1,1,1,1,1,0,0,1,1,1,0,0,1,0,0,0
2108,1,1,0,1,1,0,0,1,1,1,0,0,1,0,0,0
2112,0,0,0,1,1,0,0,1,1,1,0,0,1,0,0,0
2116,0,0,1,1,1,0,0,1,1,1,0,0,1,0,0,0
2120,0,1,1,1,1,0,0,1,1,1,0,0,1,0,0,0
2124,0,0,1,0,0,1,0,1,1,1,0,0,1,0,0,0
2128,0,0,0,0,0,1,0,1,1,1,0,0,1,0,0,0
2132,0,1,1,1,1,0,0,1,1,1,0,0,1,0,0,0
2136,1,1,0,1,1,0,0,1,1,1,0,0,1,0,0,0
2140,0,0,0,1,1,0,0,1,1,1,0,0,1,0,0,0
2144,0,0,1,1,1,0,0,1,1,1,0,0,1,0,0,0
2148,0,1,1,1,1,0,0,1,1,1,0,0,1,0,0,0
2152,1,0,1,1,0,1,0,1,1,1,0,0,1,0,0,0
2156,0,1,1,0,0,1,0,1,1,1,0,0,1,0,0,0
2160,1,1,1,1,1,0,0,1,1,1,0,0,1,0,0,0
2164,1,0,1,1,1,0,0,1,1,1,0,0,1,0,0,0
2168,0,0,0,1,1,0,0,1,1,1,0,0,1,0,0,0
2172,0,1,1,1,1,0,0,1,1,1,0,0,1,0,0,0
2180,1,1,1,0,0,1,0,1,1,1,0,0,1,0,0,0
2184,1,1,0,1,0,1,0,1,1,1,0,0,1,0,0,0
2188,1,1,0,0,0,1,0,1,1,1,0,0,1,0,0,0
2192,0,1,1,1,1,0,0,1,1,1,0,0,1,0,0,0
2196,0,0,1,1,1,0,0,1,1,1,0,0,1,0,0,0
2200,1,0,1,1,1,0,0,1,1,1,0,0,1,0,0,0
2208,1,0,0,1,0,1,0,1,1,1,0,0,1,0,0,0
2212,1,1,1,0,1,1,0,1,1,1,0,0,1,0,0,0
2216,1,0,0,0,0,1,0,1,1,1,0,0,1,0,0,0
2220,1,1,1,1,1,0,0,1,1,1,0,0,1,0,0,0
2224,0,0,1,1,1,0,0,1,1,1,0,0,1,0,0,0
2228,0,1,1,1,1,0,0,1,1,1,0,0,1,0,0,0
2232,1,0,0,0,0,1,0,1,1,1,0,0,1,0,0,0
2236,0,1,1,0,0,1,0,1,1,1,0,0,1,0,0,0
2240,1,0,1,0,1,1,0,1,1,1,0,0,1,0,0,0
2244,1,0,0,0,0,1,0,1,1,1,0,0,1,0,0,0
2252,0,0,1,1,1,0,0,1,1,1,0,0,1,0,0,0
2256,1,1,0,1,1,0,0,1,1,1,0,0,1,0,0,0
2260,1,0,1,1,1,0,0,1,1,1,0,0,1,0,0,0
2264,0,0,1,0,0,1,0,1,1,1,0,0,1,0,0,0
2268,1,0,0,1,1,1,0,1,1,1,0,0,1,0,0,0
2272,1,1,0,0,0,1,0,1,1,1,0,0,1,0,0,0
2276,0,0,0,0,0,1,0,1,1,1,0,0,1,0,0,0
2280,1,1,1,1,1,0,0,1,1,1,0,0,1,0,0,0
2284,1,0,1,1,1,0,0,1,1,1,0,0,1,0,0,0
2288,1,1,1,1,1,0,0,1,1,1,0,0,1,0,0,0
2296,0,0,1,0,1,1,0,1,1,1,0,0,1,0,0,0
2300,0,1,1,0,0,1,0,1,1,1,0,0,1,0,0,0
2304,0,0,0,0,0,1,0,1,1,1,0,0,1,0,0,0
2312,1,0,1,1,1,0,0,1,1,1,0,0,1,0,0,0
2316,1,1,1,1,1,0,0,1,1,1,0,0,1,0,0,0
2320,0,0,0,0,0,1,0,1,1,1,0,0,1,0,0,0
2324,1,1,1,0,1,1,0,1,1,1,0,0,1,0,0,0
2328,0,1,1,0,0,1,0,1,1,1,0,0,1,0,0,0
2332,1,0,0,0,0,1,0,1,1,1,0,0,1,0,0,0
2336,0,1,1,1,1,0,0,1,1,1,0,0,1,0,0,0
