; CSV generated by libsigrok 0.6.0-git-0f523f2b
; from Saleae Logic16 on Fri Jul 13 13:25:56 2018
; Channels (16/16): 0, 1, 2, 3, 4, 5, 6, 7, 8, 9, 10, 11, 12, 13, 14, 15
; Samplerate: 500 kHz
microseconds,logic,logic,logic,logic,logic,logic,logic,logic,logic,logic,logic,logic,logic,logic,logic,logic
2,0,0,0,0,1,0,0,0,1,0,0,1,1,0,0,0
6,0,0,1,0,0,0,1,0,1,0,0,1,1,0,0,0
14,1,0,1,1,0,0,1,0,1,0,0,1,1,0,0,0
22,1,0,0,1,0,1,0,0,1,0,0,1,1,0,0,0
30,0,0,1,1,0,0,0,0,1,0,0,1,1,0,0,0
38,1,0,0,1,0,0,0,0,1,0,0,1,1,0,0,0
46,0,1,0,1,0,0,0,0,1,0,0,1,1,0,0,0
54,1,1,0,1,0,0,0,0,1,0,0,1,1,0,0,0
62,1,0,0,1,1,1,0,0,1,0,0,1,1,0,0,0
70,1,0,0,0,1,0,1,0,1,0,0,1,1,0,0,0
78,1,0,1,1,0,1,0,0,1,0,0,1,1,0,0,0
86,1,0,1,1,0,0,0,0,1,0,0,1,1,0,0,0
94,0,1,0,1,0,0,0,0,1,0,0,1,1,0,0,0
102,1,0,0,1,0,0,0,0,1,0,0,1,1,0,0,0
118,0,0,1,0,1,1,0,0,1,0,0,1,1,0,0,0
126,0,1,1,1,0,0,1,0,1,0,0,1,1,0,0,0
134,0,1,0,1,0,1,0,0,1,0,0,1,1,0,0,0
142,1,1,1,1,0,0,0,0,1,0,0,1,1,0,0,0
150,1,0,0,1,0,0,0,0,1,0,0,1,1,0,0,0
158,0,0,0,1,0,0,0,0,1,0,0,1,1,0,0,0
174,0,0,0,0,0,1,0,0,1,0,0,1,1,0,0,0
182,0,0,0,1,0,0,1,0,1,0,0,1,1,0,0,0
190,0,0,0,1,1,1,0,0,1,0,0,1,1,0,0,0
198,0,1,1,1,0,0,0,0,1,0,0,1,1,0,0,0
206,1,1,0,1,0,0,0,0,1,0,0,1,1,0,0,0
214,1,1,1,0,0,0,0,0,1,0,0,1,1,0,0,0
222,0,0,0,1,0,0,0,0,1,0,0,1,1,0,0,0
230,0,0,0,1,1,0,0,0,1,0,0,1,1,0,0,0
238,0,0,1,1,0,0,1,0,1,0,0,1,1,0,0,0
246,1,0,1,0,1,1,0,0,1,0,0,1,1,0,0,0
254,0,0,0,0,1,0,0,0,1,0,0,1,1,0,0,0
262,0,0,0,1,0,0,0,0,1,0,0,1,1,0,0,0
278,1,0,0,1,0,0,0,0,1,0,0,1,1,0,0,0
286,0,1,1,0,1,0,0,0,1,0,0,1,1,0,0,0
294,0,0,0,1,0,0,1,0,1,0,0,1,1,0,0,0
302,0,0,1,1,1,1,0,0,1,0,0,1,1,0,0,0
310,1,0,1,0,1,0,0,0,1,0,0,1,1,0,0,0
318,1,0,0,1,0,0,0,0,1,0,0,1,1,0,0,0
326,0,0,0,1,0,0,0,0,1,0,0,1,1,0,0,0
342,0,0,1,1,0,0,0,0,1,0,0,1,1,0,0,0
350,1,1,1,1,1,1,0,0,1,0,0,1,1,0,0,0
358,0,0,1,0,0,0,1,0,1,0,0,1,1,0,0,0
366,1,0,0,1,1,0,0,0,1,0,0,1,1,0,0,0
374,1,0,0,1,0,0,0,0,1,0,0,1,1,0,0,0
382,0,1,1,0,0,0,0,0,1,0,0,1,1,0,0,0
398,1,1,1,0,0,0,0,0,1,0,0,1,1,0,0,0
406,0,1,1,1,1,1,0,0,1,0,0,1,1,0,0,0
414,1,1,0,0,0,0,1,0,1,0,0,1,1,0,0,0
422,1,1,1,1,1,0,0,0,1,0,0,1,1,0,0,0
430,0,0,0,1,0,0,0,0,1,0,0,1,1,0,0,0
438,1,1,1,0,0,0,0,0,1,0,0,1,1,0,0,0
454,0,0,0,1,0,0,0,0,1,0,0,1,1,0,0,0
462,0,0,1,0,1,1,0,0,1,0,0,1,1,0,0,0
470,1,1,0,0,0,0,1,0,1,0,0,1,1,0,0,0
478,1,0,1,0,0,1,0,0,1,0,0,1,1,0,0,0
486,1,0,0,1,0,0,0,0,1,0,0,1,1,0,0,0
494,0,0,0,1,0,0,0,0,1,0,0,1,1,0,0,0
502,0,1,1,0,0,0,0,0,1,0,0,1,1,0,0,0
510,1,1,1,0,0,0,0,0,1,0,0,1,1,0,0,0
518,0,0,1,1,0,1,0,0,1,0,0,1,1,0,0,0
526,0,0,0,1,0,0,1,0,1,0,0,1,1,0,0,0
534,0,0,1,1,0,1,0,0,1,0,0,1,1,0,0,0
542,1,1,0,1,0,0,0,0,1,0,0,1,1,0,0,0
550,1,1,1,0,0,0,0,0,1,0,0,1,1,0,0,0
566,0,1,1,0,0,0,0,0,1,0,0,1,1,0,0,0
574,1,0,1,0,0,1,0,0,1,0,0,1,1,0,0,0
582,1,1,1,0,0,0,1,0,1,0,0,1,1,0,0,0
590,0,0,0,1,1,1,0,0,1,0,0,1,1,0,0,0
598,1,0,1,1,0,0,0,0,1,0,0,1,1,0,0,0
606,1,0,0,1,0,0,0,0,1,0,0,1,1,0,0,0
614,1,1,1,0,0,0,0,0,1,0,0,1,1,0,0,0
622,0,1,1,0,0,0,0,0,1,0,0,1,1,0,0,0
630,0,1,0,1,1,0,0,0,1,0,0,1,1,0,0,0
638,0,0,1,1,0,0,1,0,1,0,0,1,1,0,0,0
646,0,0,1,1,1,1,0,0,1,0,0,1,1,0,0,0
654,1,0,1,1,0,0,0,0,1,0,0,1,1,0,0,0
662,0,1,1,0,0,0,0,0,1,0,0,1,1,0,0,0
670,0,0,1,0,0,0,0,0,1,0,0,1,1,0,0,0
678,1,0,1,0,0,0,0,0,1,0,0,1,1,0,0,0
686,1,0,1,0,1,0,0,0,1,0,0,1,1,0,0,0
694,1,0,0,1,0,0,1,0,1,0,0,1,1,0,0,0
702,1,1,1,1,1,1,0,0,1,0,0,1,1,0,0,0
710,1,0,1,0,1,0,0,0,1,0,0,1,1,0,0,0
718,0,0,0,1,0,0,0,0,1,0,0,1,1,0,0,0
726,0,0,1,0,0,0,0,0,1,0,0,1,1,0,0,0
734,1,0,1,0,0,0,0,0,1,0,0,1,1,0,0,0
742,0,1,0,1,0,0,0,0,1,0,0,1,1,0,0,0
750,1,0,1,0,0,0,1,0,1,0,0,1,1,0,0,0
758,0,1,1,0,0,0,1,0,1,0,0,1,1,0,0,0
766,0,1,1,1,1,0,0,0,1,0,0,1,1,0,0,0
774,1,0,0,1,0,0,0,0,1,0,0,1,1,0,0,0
782,1,0,1,0,0,0,0,0,1,0,0,1,1,0,0,0
798,0,0,0,1,0,0,0,0,1,0,0,1,1,0,0,0
806,0,0,0,0,0,0,1,0,1,0,0,1,1,0,0,0
814,0,1,0,0,0,0,1,0,1,0,0,1,1,0,0,0
822,1,0,1,1,1,0,0,0,1,0,0,1,1,0,0,0
830,0,0,0,1,0,0,0,0,1,0,0,1,1,0,0,0
838,1,0,1,0,0,0,0,0,1,0,0,1,1,0,0,0
846,0,1,1,0,0,0,0,0,1,0,0,1,1,0,0,0
862,1,0,0,0,1,1,0,0,1,0,0,1,1,0,0,0
870,1,0,1,0,0,0,1,0,1,0,0,1,1,0,0,0
878,0,0,0,1,0,1,0,0,1,0,0,1,1,0,0,0
886,0,1,0,1,0,0,0,0,1,0,0,1,1,0,0,0
894,0,1,1,0,0,0,0,0,1,0,0,1,1,0,0,0
902,1,0,1,0,0,0,0,0,1,0,0,1,1,0,0,0
918,0,1,1,0,0,1,0,0,1,0,0,1,1,0,0,0
926,0,1,1,0,0,0,1,0,1,0,0,1,1,0,0,0
934,0,1,0,1,0,1,0,0,1,0,0,1,1,0,0,0
942,1,0,0,1,0,0,0,0,1,0,0,1,1,0,0,0
950,1,0,1,0,0,0,0,0,1,0,0,1,1,0,0,0
958,1,1,0,0,0,0,0,0,1,0,0,1,1,0,0,0
966,1,0,1,0,0,0,0,0,1,0,0,1,1,0,0,0
974,0,1,1,0,0,1,0,0,1,0,0,1,1,0,0,0
982,1,1,1,0,0,0,1,0,1,0,0,1,1,0,0,0
990,0,0,1,0,1,1,0,0,1,0,0,1,1,0,0,0
998,1,1,0,1,0,0,0,0,1,0,0,1,1,0,0,0
1006,1,0,1,0,0,0,0,0,1,0,0,1,1,0,0,0
1014,0,0,1,0,0,0,0,0,1,0,0,1,1,0,0,0
1022,1,0,1,0,0,0,0,0,1,0,0,1,1,0,0,0
1030,1,1,1,1,1,0,0,0,1,0,0,1,1,0,0,0
1038,1,1,1,0,0,0,1,0,1,0,0,1,1,0,0,0
1046,0,1,1,1,1,1,0,0,1,0,0,1,1,0,0,0
1054,1,1,1,1,0,0,0,0,1,0,0,1,1,0,0,0
1062,0,1,1,0,0,0,0,0,1,0,0,1,1,0,0,0
1070,1,0,1,0,0,0,0,0,1,0,0,1,1,0,0,0
1078,0,0,1,0,0,0,0,0,1,0,0,1,1,0,0,0
1086,0,0,1,0,1,0,0,0,1,0,0,1,1,0,0,0
1094,0,1,1,0,0,0,1,0,1,0,0,1,1,0,0,0
1102,0,0,1,0,0,0,1,0,1,0,0,1,1,0,0,0
1110,1,1,0,0,1,0,0,0,1,0,0,1,1,0,0,0
1118,0,1,1,0,0,0,0,0,1,0,0,1,1,0,0,0
1126,0,0,1,0,0,0,0,0,1,0,0,1,1,0,0,0
1142,1,0,0,0,1,0,0,0,1,0,0,1,1,0,0,0
1150,0,1,0,0,0,0,1,0,1,0,0,1,1,0,0,0
1158,0,1,0,1,0,0,1,0,1,0,0,1,1,0,0,0
1166,1,1,0,1,1,0,0,0,1,0,0,1,1,0,0,0
1174,0,1,1,0,0,0,0,0,1,0,0,1,1,0,0,0
1182,0,0,1,0,0,0,0,0,1,0,0,1,1,0,0,0
1198,1,1,1,0,0,0,0,0,1,0,0,1,1,0,0,0
1206,0,0,0,0,0,0,1,0,1,0,0,1,1,0,0,0
1214,0,0,0,1,0,0,1,0,1,0,0,1,1,0,0,0
1222,1,1,0,1,1,0,0,0,1,0,0,1,1,0,0,0
1230,0,0,0,1,0,0,0,0,1,0,0,1,1,0,0,0
1238,1,1,0,0,0,0,0,0,1,0,0,1,1,0,0,0
1246,0,0,1,0,0,0,0,0,1,0,0,1,1,0,0,0
1254,0,1,1,0,0,0,0,0,1,0,0,1,1,0,0,0
1262,1,0,1,0,1,1,0,0,1,0,0,1,1,0,0,0
1270,1,1,0,0,0,0,1,0,1,0,0,1,1,0,0,0
1278,1,1,1,0,0,1,0,0,1,0,0,1,1,0,0,0
1286,0,0,0,1,0,0,0,0,1,0,0,1,1,0,0,0
1294,1,1,0,0,0,0,0,0,1,0,0,1,1,0,0,0
1302,0,0,1,0,0,0,0,0,1,0,0,1,1,0,0,0
1310,1,1,0,0,0,0,0,0,1,0,0,1,1,0,0,0
1318,1,0,1,1,0,1,0,0,1,0,0,1,1,0,0,0
1326,0,0,0,1,0,0,1,0,1,0,0,1,1,0,0,0
1334,1,0,0,1,0,1,0,0,1,0,0,1,1,0,0,0
1342,1,1,1,0,0,0,0,0,1,0,0,1,1,0,0,0
1350,0,0,1,0,0,0,0,0,1,0,0,1,1,0,0,0
1358,1,1,0,0,0,0,0,0,1,0,0,1,1,0,0,0
1366,0,0,1,0,0,0,0,0,1,0,0,1,1,0,0,0
1374,1,1,1,0,0,1,0,0,1,0,0,1,1,0,0,0
1382,1,1,0,0,0,0,1,0,1,0,0,1,1,0,0,0
1390,1,0,0,0,1,1,0,0,1,0,0,1,1,0,0,0
1398,0,0,0,1,0,0,0,0,1,0,0,1,1,0,0,0
1406,0,0,1,0,0,0,0,0,1,0,0,1,1,0,0,0
1414,0,0,0,0,0,0,0,0,1,0,0,1,1,0,0,0
1422,0,1,0,0,0,0,0,0,1,0,0,1,1,0,0,0
1430,1,0,1,0,1,0,0,0,1,0,0,1,1,0,0,0
1438,1,0,1,1,1,1,0,0,1,0,0,1,1,0,0,0
1446,0,1,1,0,1,1,0,0,1,0,0,1,1,0,0,0
1454,0,1,0,1,0,0,0,0,1,0,0,1,1,0,0,0
1462,1,1,0,0,0,0,0,0,1,0,0,1,1,0,0,0
1470,0,1,0,0,0,0,0,0,1,0,0,1,1,0,0,0
1478,1,1,0,0,0,0,0,0,1,0,0,1,1,0,0,0
1486,0,0,1,1,0,0,0,0,1,0,0,1,1,0,0,0
1494,0,0,1,1,1,1,0,0,1,0,0,1,1,0,0,0
1502,0,0,1,0,1,1,0,0,1,0,0,1,1,0,0,0
1510,0,1,0,1,0,0,0,0,1,0,0,1,1,0,0,0
1518,0,1,0,0,0,0,0,0,1,0,0,1,1,0,0,0
1526,1,0,0,0,0,0,0,0,1,0,0,1,1,0,0,0
1534,0,1,0,0,0,0,0,0,1,0,0,1,1,0,0,0
1536,0,1,1,1,1,0,1,1,1,0,0,1,1,0,0,0
1538,0,1,0,1,0,1,0,1,1,0,0,1,1,0,0,0
1542,0,0,1,0,0,1,0,1,1,0,0,1,1,0,0,0
1544,1,1,1,0,0,0,0,0,1,0,0,1,1,0,0,0
1550,0,0,1,0,1,1,0,0,1,0,0,1,1,0,0,0
1558,1,0,0,1,1,1,0,0,1,0,0,1,1,0,0,0
1566,0,1,1,1,0,0,0,0,1,0,0,1,1,0,0,0
1574,0,0,1,0,0,0,0,0,1,0,0,1,1,0,0,0
1582,0,1,0,0,0,0,0,0,1,0,0,1,1,0,0,0
1590,0,0,0,0,0,0,0,0,1,0,0,1,1,0,0,0
1598,1,1,0,0,0,0,0,0,1,0,0,1,1,0,0,0
1606,0,0,0,1,0,1,0,0,1,0,0,1,1,0,0,0
1614,0,1,0,1,1,1,0,0,1,0,0,1,1,0,0,0
1622,0,0,0,0,1,0,0,0,1,0,0,1,1,0,0,0
1630,1,1,0,0,0,0,0,0,1,0,0,1,1,0,0,0
1638,0,1,0,0,0,0,0,0,1,0,0,1,1,0,0,0
1654,1,1,0,0,0,0,0,0,1,0,0,1,1,0,0,0
1662,1,1,1,0,0,1,0,0,1,0,0,1,1,0,0,0
1670,0,0,1,1,1,1,0,0,1,0,0,1,1,0,0,0
1678,0,1,1,0,1,0,0,0,1,0,0,1,1,0,0,0
1686,0,0,1,0,0,0,0,0,1,0,0,1,1,0,0,0
1694,0,0,0,0,0,0,0,0,1,0,0,1,1,0,0,0
1710,1,0,0,0,0,0,0,0,1,0,0,1,1,0,0,0
1718,1,1,0,1,1,0,0,0,1,0,0,1,1,0,0,0
1726,0,0,0,0,0,0,1,0,1,0,0,1,1,0,0,0
1734,0,0,0,0,0,1,0,0,1,0,0,1,1,0,0,0
1742,0,0,1,0,0,0,0,0,1,0,0,1,1,0,0,0
1750,1,0,0,0,0,0,0,0,1,0,0,1,1,0,0,0
1758,0,0,0,0,0,0,0,0,1,0,0,1,1,0,0,0
1766,0,1,0,0,0,0,0,0,1,0,0,1,1,0,0,0
1774,0,1,1,0,1,0,0,0,1,0,0,1,1,0,0,0
1782,0,0,1,1,1,1,0,0,1,0,0,1,1,0,0,0
1790,1,1,0,0,0,1,0,0,1,0,0,1,1,0,0,0
1798,1,0,1,0,0,0,0,0,1,0,0,1,1,0,0,0
1806,0,0,0,0,0,0,0,0,1,0,0,1,1,0,0,0
1822,1,0,0,0,0,0,0,0,1,0,0,1,1,0,0,0
1830,1,0,1,0,1,0,0,0,1,0,0,1,1,0,0,0
1838,0,0,1,1,1,1,0,0,1,0,0,1,1,0,0,0
1846,0,0,0,0,1,1,0,0,1,0,0,1,1,0,0,0
1854,0,0,0,1,0,0,0,0,1,0,0,1,1,0,0,0
1862,0,1,0,0,0,0,0,0,1,0,0,1,1,0,0,0
1870,1,0,0,0,0,0,0,0,1,0,0,1,1,0,0,0
1878,0,0,0,0,0,0,0,0,1,0,0,1,1,0,0,0
1886,1,1,0,1,0,0,0,0,1,0,0,1,1,0,0,0
1894,1,0,1,1,1,1,0,0,1,0,0,1,1,0,0,0
1902,0,0,0,1,1,1,0,0,1,0,0,1,1,0,0,0
1910,0,1,0,1,0,0,0,0,1,0,0,1,1,0,0,0
1918,1,0,0,0,0,0,0,0,1,0,0,1,1,0,0,0
1926,1,1,1,1,1,1,1,1,0,0,0,1,1,0,0,0
1934,0,0,0,0,0,0,0,0,1,0,0,1,1,0,0,0
1942,0,0,0,1,0,0,0,0,1,0,0,1,1,0,0,0
1950,1,0,1,0,1,1,0,0,1,0,0,1,1,0,0,0
1958,1,0,0,1,1,1,0,0,1,0,0,1,1,0,0,0
1966,0,0,0,0,1,0,0,0,1,0,0,1,1,0,0,0
1974,0,1,0,0,0,0,0,0,1,0,0,1,1,0,0,0
1982,1,0,0,0,0,0,0,0,1,0,0,1,1,0,0,0
1990,0,0,0,0,0,0,0,0,1,0,0,1,1,0,0,0
1998,1,1,0,0,0,0,0,0,1,0,0,1,1,0,0,0
2006,1,1,0,0,1,1,0,0,1,0,0,1,1,0,0,0
2014,0,0,1,0,0,0,1,0,1,0,0,1,1,0,0,0
2018,0,1,1,0,0,1,0,0,1,0,0,1,1,0,0,0
2022,0,0,1,1,0,0,0,0,1,0,0,1,1,0,0,0
2030,1,0,0,1,0,0,0,0,1,0,0,1,1,0,0,0
2046,0,0,0,0,1,0,0,0,1,0,0,1,1,0,0,0
2054,0,0,1,0,0,0,1,0,1,0,0,1,1,0,0,0
2062,1,0,1,1,0,0,1,0,1,0,0,1,1,0,0,0
2070,1,0,0,1,0,1,0,0,1,0,0,1,1,0,0,0
2078,0,0,1,1,0,0,0,0,1,0,0,1,1,0,0,0
2086,1,0,0,1,0,0,0,0,1,0,0,1,1,0,0,0
2094,0,1,0,1,0,0,0,0,1,0,0,1,1,0,0,0
2102,1,1,0,1,0,0,0,0,1,0,0,1,1,0,0,0
2110,1,0,0,1,1,1,0,0,1,0,0,1,1,0,0,0
2118,1,0,0,0,1,0,1,0,1,0,0,1,1,0,0,0
2126,1,0,1,1,0,1,0,0,1,0,0,1,1,0,0,0
2134,1,0,1,1,0,0,0,0,1,0,0,1,1,0,0,0
2142,0,1,0,1,0,0,0,0,1,0,0,1,1,0,0,0
2150,1,0,0,1,0,0,0,0,1,0,0,1,1,0,0,0
2166,0,0,1,0,1,1,0,0,1,0,0,1,1,0,0,0
2174,0,1,1,1,0,0,1,0,1,0,0,1,1,0,0,0
2182,0,1,0,1,0,1,0,0,1,0,0,1,1,0,0,0
2190,1,1,1,1,0,0,0,0,1,0,0,1,1,0,0,0
2198,1,0,0,1,0,0,0,0,1,0,0,1,1,0,0,0
2206,0,0,0,1,0,0,0,0,1,0,0,1,1,0,0,0
2222,0,0,0,0,0,1,0,0,1,0,0,1,1,0,0,0
2230,0,0,0,1,0,0,1,0,1,0,0,1,1,0,0,0
2238,0,0,0,1,1,1,0,0,1,0,0,1,1,0,0,0
2246,0,1,1,1,0,0,0,0,1,0,0,1,1,0,0,0
2254,1,1,0,1,0,0,0,0,1,0,0,1,1,0,0,0
2262,1,1,1,0,0,0,0,0,1,0,0,1,1,0,0,0
2270,0,0,0,1,0,0,0,0,1,0,0,1,1,0,0,0
2278,0,0,0,1,1,0,0,0,1,0,0,1,1,0,0,0
2286,0,0,1,1,0,0,1,0,1,0,0,1,1,0,0,0
2294,1,0,1,0,1,1,0,0,1,0,0,1,1,0,0,0
2302,0,0,0,0,1,0,0,0,1,0,0,1,1,0,0,0
2310,0,0,0,1,0,0,0,0,1,0,0,1,1,0,0,0
2326,1,0,0,1,0,0,0,0,1,0,0,1,1,0,0,0
2334,0,1,1,0,1,0,0,0,1,0,0,1,1,0,0,0
2342,0,0,0,1,0,0,1,0,1,0,0,1,1,0,0,0
2350,0,0,1,1,1,1,0,0,1,0,0,1,1,0,0,0
2358,1,0,1,0,1,0,0,0,1,0,0,1,1,0,0,0
2366,1,0,0,1,0,0,0,0,1,0,0,1,1,0,0,0
2374,0,0,0,1,0,0,0,0,1,0,0,1,1,0,0,0
2390,0,0,1,1,0,0,0,0,1,0,0,1,1,0,0,0
2398,1,1,1,1,1,1,0,0,1,0,0,1,1,0,0,0
2406,0,0,1,0,0,0,1,0,1,0,0,1,1,0,0,0
2414,1,0,0,1,1,0,0,0,1,0,0,1,1,0,0,0
2422,1,0,0,1,0,0,0,0,1,0,0,1,1,0,0,0
2430,0,1,1,0,0,0,0,0,1,0,0,1,1,0,0,0
2446,1,1,1,0,0,0,0,0,1,0,0,1,1,0,0,0
2454,0,1,1,1,1,1,0,0,1,0,0,1,1,0,0,0
2462,1,1,0,0,0,0,1,0,1,0,0,1,1,0,0,0
2470,1,1,1,1,1,0,0,0,1,0,0,1,1,0,0,0
2478,0,0,0,1,0,0,0,0,1,0,0,1,1,0,0,0
2486,1,1,1,0,0,0,0,0,1,0,0,1,1,0,0,0
2502,0,0,0,1,0,0,0,0,1,0,0,1,1,0,0,0
2510,0,0,1,0,1,1,0,0,1,0,0,1,1,0,0,0
2518,1,1,0,0,0,0,1,0,1,0,0,1,1,0,0,0
2526,1,0,1,0,0,1,0,0,1,0,0,1,1,0,0,0
2534,1,0,0,1,0,0,0,0,1,0,0,1,1,0,0,0
2542,0,0,0,1,0,0,0,0,1,0,0,1,1,0,0,0
2550,0,1,1,0,0,0,0,0,1,0,0,1,1,0,0,0
2558,1,1,1,0,0,0,0,0,1,0,0,1,1,0,0,0
2566,0,0,1,1,0,1,0,0,1,0,0,1,1,0,0,0
2574,0,0,0,1,0,0,1,0,1,0,0,1,1,0,0,0
2582,0,0,1,1,0,1,0,0,1,0,0,1,1,0,0,0
2590,1,1,0,1,0,0,0,0,1,0,0,1,1,0,0,0
2598,1,1,1,0,0,0,0,0,1,0,0,1,1,0,0,0
2614,0,1,1,0,0,0,0,0,1,0,0,1,1,0,0,0
2622,1,0,1,0,0,1,0,0,1,0,0,1,1,0,0,0
2630,1,1,1,0,0,0,1,0,1,0,0,1,1,0,0,0
2638,0,0,0,1,1,1,0,0,1,0,0,1,1,0,0,0
2646,1,0,1,1,0,0,0,0,1,0,0,1,1,0,0,0
2654,1,0,0,1,0,0,0,0,1,0,0,1,1,0,0,0
2662,1,1,1,0,0,0,0,0,1,0,0,1,1,0,0,0
2670,0,1,1,0,0,0,0,0,1,0,0,1,1,0,0,0
2678,0,1,0,1,1,0,0,0,1,0,0,1,1,0,0,0
2686,0,0,1,1,0,0,1,0,1,0,0,1,1,0,0,0
2694,0,0,1,1,1,1,0,0,1,0,0,1,1,0,0,0
2702,1,0,1,1,0,0,0,0,1,0,0,1,1,0,0,0
2710,0,1,1,0,0,0,0,0,1,0,0,1,1,0,0,0
2718,0,0,1,0,0,0,0,0,1,0,0,1,1,0,0,0
2726,1,0,1,0,0,0,0,0,1,0,0,1,1,0,0,0
2734,1,0,1,0,1,0,0,0,1,0,0,1,1,0,0,0
2742,1,0,0,1,0,0,1,0,1,0,0,1,1,0,0,0
2750,1,1,1,1,1,1,0,0,1,0,0,1,1,0,0,0
2758,1,0,1,0,1,0,0,0,1,0,0,1,1,0,0,0
2766,0,0,0,1,0,0,0,0,1,0,0,1,1,0,0,0
2774,0,0,1,0,0,0,0,0,1,0,0,1,1,0,0,0
2782,1,0,1,0,0,0,0,0,1,0,0,1,1,0,0,0
2790,0,1,0,1,0,0,0,0,1,0,0,1,1,0,0,0
2798,1,0,1,0,0,0,1,0,1,0,0,1,1,0,0,0
2806,0,1,1,0,0,0,1,0,1,0,0,1,1,0,0,0
2814,0,1,1,1,1,0,0,0,1,0,0,1,1,0,0,0
2822,1,0,0,1,0,0,0,0,1,0,0,1,1,0,0,0
2830,1,0,1,0,0,0,0,0,1,0,0,1,1,0,0,0
2846,0,0,0,1,0,0,0,0,1,0,0,1,1,0,0,0
2854,0,0,0,0,0,0,1,0,1,0,0,1,1,0,0,0
2862,0,1,0,0,0,0,1,0,1,0,0,1,1,0,0,0
2870,1,0,1,1,1,0,0,0,1,0,0,1,1,0,0,0
2878,0,0,0,1,0,0,0,0,1,0,0,1,1,0,0,0
2886,1,0,1,0,0,0,0,0,1,0,0,1,1,0,0,0
2894,0,1,1,0,0,0,0,0,1,0,0,1,1,0,0,0
2910,1,0,0,0,1,1,0,0,1,0,0,1,1,0,0,0
2918,1,0,1,0,0,0,1,0,1,0,0,1,1,0,0,0
2926,0,0,0,1,0,1,0,0,1,0,0,1,1,0,0,0
2934,0,1,0,1,0,0,0,0,1,0,0,1,1,0,0,0
2942,0,1,1,0,0,0,0,0,1,0,0,1,1,0,0,0
2950,1,0,1,0,0,0,0,0,1,0,0,1,1,0,0,0
2966,0,1,1,0,0,1,0,0,1,0,0,1,1,0,0,0
2974,0,1,1,0,0,0,1,0,1,0,0,1,1,0,0,0
2982,0,1,0,1,0,1,0,0,1,0,0,1,1,0,0,0
2990,1,0,0,1,0,0,0,0,1,0,0,1,1,0,0,0
2998,1,0,1,0,0,0,0,0,1,0,0,1,1,0,0,0
3006,1,1,0,0,0,0,0,0,1,0,0,1,1,0,0,0
3014,1,0,1,0,0,0,0,0,1,0,0,1,1,0,0,0
3022,0,1,1,0,0,1,0,0,1,0,0,1,1,0,0,0
3030,1,1,1,0,0,0,1,0,1,0,0,1,1,0,0,0
3038,0,0,1,0,1,1,0,0,1,0,0,1,1,0,0,0
3046,1,1,0,1,0,0,0,0,1,0,0,1,1,0,0,0
3054,1,0,1,0,0,0,0,0,1,0,0,1,1,0,0,0
3062,0,0,1,0,0,0,0,0,1,0,0,1,1,0,0,0
3070,1,0,1,0,0,0,0,0,1,0,0,1,1,0,0,0
3078,1,1,1,1,1,0,0,0,1,0,0,1,1,0,0,0
3086,1,1,1,0,0,0,1,0,1,0,0,1,1,0,0,0
3094,0,1,1,1,1,1,0,0,1,0,0,1,1,0,0,0
3102,1,1,1,1,0,0,0,0,1,0,0,1,1,0,0,0
3110,0,1,1,0,0,0,0,0,1,0,0,1,1,0,0,0
3118,1,0,1,0,0,0,0,0,1,0,0,1,1,0,0,0
3126,0,0,1,0,0,0,0,0,1,0,0,1,1,0,0,0
3134,0,0,1,0,1,0,0,0,1,0,0,1,1,0,0,0
3142,0,1,1,0,0,0,1,0,1,0,0,1,1,0,0,0
3150,0,0,1,0,0,0,1,0,1,0,0,1,1,0,0,0
3158,1,1,0,0,1,0,0,0,1,0,0,1,1,0,0,0
3166,0,1,1,0,0,0,0,0,1,0,0,1,1,0,0,0
3174,0,0,1,0,0,0,0,0,1,0,0,1,1,0,0,0
3190,1,0,0,0,1,0,0,0,1,0,0,1,1,0,0,0
3198,0,1,0,0,0,0,1,0,1,0,0,1,1,0,0,0
3206,0,1,0,1,0,0,1,0,1,0,0,1,1,0,0,0
3214,1,1,0,1,1,0,0,0,1,0,0,1,1,0,0,0
3222,0,1,1,0,0,0,0,0,1,0,0,1,1,0,0,0
3230,0,0,1,0,0,0,0,0,1,0,0,1,1,0,0,0
3246,1,1,1,0,0,0,0,0,1,0,0,1,1,0,0,0
3254,0,0,0,0,0,0,1,0,1,0,0,1,1,0,0,0
3262,0,0,0,1,0,0,1,0,1,0,0,1,1,0,0,0
3270,1,1,0,1,1,0,0,0,1,0,0,1,1,0,0,0
3278,0,0,0,1,0,0,0,0,1,0,0,1,1,0,0,0
3286,1,1,0,0,0,0,0,0,1,0,0,1,1,0,0,0
3294,0,0,1,0,0,0,0,0,1,0,0,1,1,0,0,0
3302,0,1,1,0,0,0,0,0,1,0,0,1,1,0,0,0
3310,1,0,1,0,1,1,0,0,1,0,0,1,1,0,0,0
3318,1,1,0,0,0,0,1,0,1,0,0,1,1,0,0,0
3326,1,1,1,0,0,1,0,0,1,0,0,1,1,0,0,0
3334,0,0,0,1,0,0,0,0,1,0,0,1,1,0,0,0
3342,1,1,0,0,0,0,0,0,1,0,0,1,1,0,0,0
3350,0,0,1,0,0,0,0,0,1,0,0,1,1,0,0,0
3358,1,1,0,0,0,0,0,0,1,0,0,1,1,0,0,0
3366,1,0,1,1,0,1,0,0,1,0,0,1,1,0,0,0
3374,0,0,0,1,0,0,1,0,1,0,0,1,1,0,0,0
3382,1,0,0,1,0,1,0,0,1,0,0,1,1,0,0,0
3390,1,1,1,0,0,0,0,0,1,0,0,1,1,0,0,0
3398,0,0,1,0,0,0,0,0,1,0,0,1,1,0,0,0
3406,1,1,0,0,0,0,0,0,1,0,0,1,1,0,0,0
3414,0,0,1,0,0,0,0,0,1,0,0,1,1,0,0,0
3422,1,1,1,0,0,1,0,0,1,0,0,1,1,0,0,0
3430,1,1,0,0,0,0,1,0,1,0,0,1,1,0,0,0
3438,1,0,0,0,1,1,0,0,1,0,0,1,1,0,0,0
3446,0,0,0,1,0,0,0,0,1,0,0,1,1,0,0,0
3454,0,0,1,0,0,0,0,0,1,0,0,1,1,0,0,0
3462,0,0,0,0,0,0,0,0,1,0,0,1,1,0,0,0
3470,0,1,0,0,0,0,0,0,1,0,0,1,1,0,0,0
3478,1,0,1,0,1,0,0,0,1,0,0,1,1,0,0,0
3486,1,0,1,1,1,1,0,0,1,0,0,1,1,0,0,0
3494,0,1,1,0,1,1,0,0,1,0,0,1,1,0,0,0
3502,0,1,0,1,0,0,0,0,1,0,0,1,1,0,0,0
3510,1,1,0,0,0,0,0,0,1,0,0,1,1,0,0,0
3518,0,1,0,0,0,0,0,0,1,0,0,1,1,0,0,0
3526,1,1,0,0,0,0,0,0,1,0,0,1,1,0,0,0
3534,0,0,1,1,0,0,0,0,1,0,0,1,1,0,0,0
3542,0,0,1,1,1,1,0,0,1,0,0,1,1,0,0,0
3550,0,0,1,0,1,1,0,0,1,0,0,1,1,0,0,0
3558,0,1,0,1,0,0,0,0,1,0,0,1,1,0,0,0
3566,0,1,0,0,0,0,0,0,1,0,0,1,1,0,0,0
3574,1,0,0,0,0,0,0,0,1,0,0,1,1,0,0,0
3582,0,1,0,0,0,0,0,0,1,0,0,1,1,0,0,0
3584,0,1,1,1,1,0,1,1,1,0,0,1,1,0,0,0
3586,0,1,0,1,0,1,0,1,1,0,0,1,1,0,0,0
3590,0,0,1,0,0,1,0,1,1,0,0,1,1,0,0,0
3594,1,0,0,0,0,1,0,1,1,0,0,1,1,0,0,0
3598,0,0,1,0,1,1,0,1,1,0,0,1,1,0,0,0
3602,0,0,0,1,1,1,1,1,1,0,0,1,1,0,0,0
3606,0,0,0,1,0,0,0,0,0,1,0,1,1,0,0,0
3610,1,1,1,0,0,1,1,1,1,0,0,1,1,0,0,0
3614,1,0,1,1,0,1,0,1,1,0,0,1,1,0,0,0
3618,1,1,0,0,0,1,0,1,1,0,0,1,1,0,0,0
3622,0,1,0,0,0,1,0,1,1,0,0,1,1,0,0,0
3626,0,0,1,1,0,1,0,1,1,0,0,1,1,0,0,0
3630,1,1,0,0,1,1,1,1,1,0,0,1,1,0,0,0
3634,0,0,0,1,0,0,0,0,0,1,0,1,1,0,0,0
3638,0,1,1,1,0,1,1,1,1,0,0,1,1,0,0,0
3642,1,1,0,0,1,1,0,1,1,0,0,1,1,0,0,0
3646,1,1,0,0,0,1,0,1,1,0,0,1,1,0,0,0
3650,1,0,0,0,0,1,0,1,1,0,0,1,1,0,0,0
3654,0,1,1,0,0,1,0,1,1,0,0,1,1,0,0,0
3658,1,1,0,1,0,1,1,1,1,0,0,1,1,0,0,0
3662,1,1,1,0,0,0,0,0,0,1,0,1,1,0,0,0
3666,0,0,0,1,1,1,1,1,1,0,0,1,1,0,0,0
3670,0,0,1,1,1,1,0,1,1,0,0,1,1,0,0,0
3674,0,0,1,0,0,1,0,1,1,0,0,1,1,0,0,0
3678,0,1,0,0,0,1,0,1,1,0,0,1,1,0,0,0
3682,1,0,0,0,0,1,0,1,1,0,0,1,1,0,0,0
3686,0,0,1,0,0,1,1,1,1,0,0,1,1,0,0,0
3690,0,0,0,1,0,0,0,0,0,1,0,1,1,0,0,0
3694,0,0,1,1,1,1,1,1,1,0,0,1,1,0,0,0
3698,0,1,1,1,1,1,0,1,1,0,0,1,1,0,0,0
3702,0,1,1,0,0,1,0,1,1,0,0,1,1,0,0,0
3706,0,0,1,0,0,1,0,1,1,0,0,1,1,0,0,0
3710,1,1,0,0,0,1,0,1,1,0,0,1,1,0,0,0
3714,1,1,0,1,1,0,1,1,1,0,0,1,1,0,0,0
3718,1,1,0,0,0,0,0,0,0,1,0,1,1,0,0,0
3722,1,1,1,1,1,1,1,1,1,0,0,1,1,0,0,0
3726,1,1,0,1,0,0,1,1,1,0,0,1,1,0,0,0
3730,0,1,1,0,0,1,0,1,1,0,0,1,1,0,0,0
3734,1,1,0,0,0,1,0,1,1,0,0,1,1,0,0,0
3738,0,1,0,0,0,1,0,1,1,0,0,1,1,0,0,0
3742,0,0,0,1,0,0,1,1,1,0,0,1,1,0,0,0
3746,1,0,0,0,0,0,0,0,0,1,0,1,1,0,0,0
3750,0,1,1,0,0,0,0,0,0,1,0,1,1,0,0,0
3754,1,1,0,0,1,0,1,1,1,0,0,1,1,0,0,0
3758,1,0,0,1,0,1,0,1,1,0,0,1,1,0,0,0
3762,0,0,1,0,0,1,0,1,1,0,0,1,1,0,0,0
3770,0,0,1,1,1,1,0,1,1,0,0,1,1,0,0,0
3774,0,0,0,0,0,0,0,0,0,1,0,1,1,0,0,0
3778,1,0,1,0,0,0,0,0,0,1,0,1,1,0,0,0
3782,0,1,1,1,1,0,1,1,1,0,0,1,1,0,0,0
3786,0,1,0,1,0,1,0,1,1,0,0,1,1,0,0,0
3790,0,0,1,0,0,1,0,1,1,0,0,1,1,0,0,0
3794,0,1,0,0,0,1,0,1,1,0,0,1,1,0,0,0
3798,0,0,1,0,1,1,0,1,1,0,0,1,1,0,0,0
3802,0,0,0,1,1,1,1,1,1,0,0,1,1,0,0,0
3806,1,0,1,0,0,0,0,0,0,1,0,1,1,0,0,0
3810,0,1,1,0,0,1,1,1,1,0,0,1,1,0,0,0
3814,0,0,1,1,0,1,0,1,1,0,0,1,1,0,0,0
3818,1,0,1,0,0,1,0,1,1,0,0,1,1,0,0,0
3822,1,1,0,0,0,1,0,1,1,0,0,1,1,0,0,0
3826,1,0,0,1,0,1,0,1,1,0,0,1,1,0,0,0
3830,1,1,0,1,0,1,1,1,1,0,0,1,1,0,0,0
3834,0,0,1,0,0,0,0,0,0,1,0,1,1,0,0,0
3838,1,0,0,1,0,1,1,1,1,0,0,1,1,0,0,0
3842,0,1,1,1,0,1,0,1,1,0,0,1,1,0,0,0
3846,0,0,1,0,0,1,0,1,1,0,0,1,1,0,0,0
3850,1,1,0,0,0,1,0,1,1,0,0,1,1,0,0,0
3854,1,0,1,0,0,1,0,1,1,0,0,1,1,0,0,0
3858,0,1,0,0,0,1,1,1,1,0,0,1,1,0,0,0
3862,0,0,1,0,0,0,0,0,0,1,0,1,1,0,0,0
3866,0,0,0,0,1,1,1,1,1,0,0,1,1,0,0,0
3870,1,1,0,0,1,1,0,1,1,0,0,1,1,0,0,0
3874,1,0,1,0,0,1,0,1,1,0,0,1,1,0,0,0
3882,0,0,1,0,0,1,0,1,1,0,0,1,1,0,0,0
3886,0,0,0,1,1,0,1,1,1,0,0,1,1,0,0,0
3890,1,1,0,0,0,0,0,0,0,1,0,1,1,0,0,0
3894,0,0,1,0,1,1,1,1,1,0,0,1,1,0,0,0
3898,1,1,0,1,1,1,0,1,1,0,0,1,1,0,0,0
3902,1,0,1,0,0,1,0,1,1,0,0,1,1,0,0,0
3906,1,1,0,0,0,1,0,1,1,0,0,1,1,0,0,0
3910,0,1,0,0,0,1,0,1,1,0,0,1,1,0,0,0
3914,0,0,1,1,1,0,1,1,1,0,0,1,1,0,0,0
3918,1,1,1,0,0,0,0,0,0,1,0,1,1,0,0,0
3922,0,0,1,0,0,0,0,0,0,1,0,1,1,0,0,0
3926,1,1,0,0,1,0,1,1,1,0,0,1,1,0,0,0
3930,1,0,0,1,0,1,0,1,1,0,0,1,1,0,0,0
3934,0,1,1,0,0,1,0,1,1,0,0,1,1,0,0,0
3938,1,1,0,0,0,1,0,1,1,0,0,1,1,0,0,0
3942,0,0,1,1,0,0,1,1,1,0,0,1,1,0,0,0
3946,0,1,0,0,0,0,0,0,0,1,0,1,1,0,0,0
3950,1,1,1,0,0,0,0,0,0,1,0,1,1,0,0,0
3954,1,1,0,1,1,0,1,1,1,0,0,1,1,0,0,0
3958,0,1,0,1,0,1,0,1,1,0,0,1,1,0,0,0
3962,1,0,1,0,0,1,0,1,1,0,0,1,1,0,0,0
3966,0,0,1,0,0,1,0,1,1,0,0,1,1,0,0,0
3970,0,0,0,1,0,0,1,1,1,0,0,1,1,0,0,0
3974,0,1,0,0,0,0,0,0,0,1,0,1,1,0,0,0
3978,0,0,0,1,0,0,0,0,0,1,0,1,1,0,0,0
3982,1,1,0,0,0,1,1,1,1,0,0,1,1,0,0,0
3986,1,0,1,1,0,1,0,1,1,0,0,1,1,0,0,0
3990,0,1,1,0,0,1,0,1,1,0,0,1,1,0,0,0
3994,1,1,0,0,0,1,0,1,1,0,0,1,1,0,0,0
3998,0,0,0,1,1,1,0,1,1,0,0,1,1,0,0,0
4002,1,1,1,0,1,1,1,1,1,0,0,1,1,0,0,0
4006,0,0,0,1,0,0,0,0,0,1,0,1,1,0,0,0
4010,0,0,1,1,0,1,1,1,1,0,0,1,1,0,0,0
4014,1,1,1,1,0,1,0,1,1,0,0,1,1,0,0,0
4018,0,1,1,0,0,1,0,1,1,0,0,1,1,0,0,0
4026,1,1,0,1,0,1,0,1,1,0,0,1,1,0,0,0
4030,0,0,0,0,1,1,1,1,1,0,0,1,1,0,0,0
